!Keysight Technologies,N5244A,MY52442000,A.10.40.14
!Date: Thursday, July 16, 2020 11:13:50
!Correction: S11(Full 2 Port(1,2)) 
!S21(Full 2 Port(1,2)) 
!S12(Full 2 Port(1,2)) 
!S22(Full 2 Port(1,2)) 
!S2P File: Measurements: S11, S21, S12, S22:
# Hz S  dB   R 50
10000000 -1.1154366 177.45132 -61.917088 -39.332123 -54.43026 -107.75543 -26.078518 174.33057
20000000 -1.2141834 176.40929 -65.186996 32.23967 -60.375084 71.262321 -26.170315 175.26274
30000000 -1.2504436 175.16217 -66.602501 79.873886 -70.872284 -124.14069 -26.105785 172.00502
40000000 -1.2673424 173.66769 -66.000801 -1.4422073 -62.542225 -153.15782 -26.579037 168.97781
50000000 -1.2804047 172.26718 -65.74855 -82.250923 -72.627579 17.748236 -26.666265 167.43762
60000000 -1.2564911 170.97842 -66.153603 18.629051 -67.922432 56.188625 -26.71723 164.37318
70000000 -1.2721169 169.57399 -83.794014 -30.881102 -63.306915 -5.4010487 -26.485651 160.29759
80000000 -1.2608473 167.98827 -64.874001 -108.51418 -71.895782 -149.73819 -26.655678 157.08524
90000000 -1.2720457 166.51387 -61.082176 -152.95425 -61.694588 142.92337 -26.289557 155.39896
100000000 -1.2976785 164.96761 -75.713646 79.632706 -69.708588 16.304512 -26.419533 152.88
500000000 -1.4338733 108.64718 -49.07793 50.911751 -77.698181 -98.234528 -22.971325 81.212486
1000000000 -1.4551744 40.005772 -28.256474 7.1541719 -88.944466 21.027771 -19.028938 20.285454
1500000000 -1.5526122 -28.484463 -12.580557 -45.124886 -69.781601 -177.3783 -16.234322 -34.986298
2000000000 -2.5452156 -95.157173 -0.55126935 -138.38258 -64.120514 -52.565163 -14.131334 -92.633629
2500000000 -3.1226192 -161.0403 5.6313848 146.39847 -65.765854 -168.15556 -11.959241 -156.21542
3000000000 -3.9603558 128.17139 12.841626 71.566399 -62.657967 132.57707 -9.6338959 130.28299
3500000000 -5.214745 54.624481 19.071293 -17.723993 -67.081284 17.67482 -8.0607796 48.150318
4000000000 -6.8053946 -16.092117 22.556618 -113.52944 -67.661781 -127.18102 -7.8980942 -29.750908
4200000000 -7.4257593 -41.905682 23.25495 -150.61537 -67.217842 -124.30038 -8.0359411 -56.770782
4400000000 -7.9398465 -65.798485 23.700611 173.54939 -75.049652 -2.2626772 -8.1771603 -82.824921
4600000000 -8.4202137 -88.304413 23.90731 138.65396 -71.55645 120.99753 -8.3971386 -107.32768
4800000000 -8.6324348 -109.44431 23.942053 105.24422 -80.820877 45.576244 -8.6599665 -130.38675
5000000000 -8.7054548 -129.9379 23.937546 73.303406 -89.720886 71.305992 -8.7634153 -153.22319
5200000000 -8.6392307 -150.28807 23.806889 42.235619 -75.334457 115.86131 -9.1379948 -175.22
5400000000 -8.4862127 -170.72179 23.677927 12.564955 -71.340813 -38.187916 -9.2875919 164.57657
5600000000 -8.3533087 169.12875 23.551439 -16.374838 -74.808624 -7.789041 -9.6253366 143.61255
5800000000 -8.2582445 148.56114 23.441944 -44.724594 -70.793221 -20.302769 -9.9333677 123.80856
6000000000 -8.2046223 128.22394 23.308954 -72.152306 -66.945259 -44.228436 -10.411705 104.07493
6200000000 -8.2210693 107.69855 23.302391 -99.413239 -64.566208 -51.69973 -10.710305 84.822395
6400000000 -8.3143225 87.177116 23.25596 -126.34024 -65.295258 -51.620487 -11.182306 64.797981
6600000000 -8.4706869 66.207237 23.261051 -152.77542 -63.166691 -101.24844 -11.733904 45.890388
6800000000 -8.7409868 45.090065 23.274958 -179.32492 -60.874939 -91.820053 -12.029706 26.173967
7000000000 -9.0640736 23.787403 23.332869 154.26741 -62.328011 -140.83649 -12.662823 4.8116827
7200000000 -9.447834 2.132129 23.357477 127.84012 -62.95499 -173.48889 -13.05208 -13.940535
7400000000 -9.9234409 -20.060312 23.427366 101.6688 -59.842972 -178.71391 -13.343991 -36.001034
7600000000 -10.417053 -42.454281 23.495478 75.293762 -59.94014 142.37247 -13.864243 -57.983463
7800000000 -10.986022 -65.497627 23.508839 48.978283 -60.518448 123.95337 -14.191233 -79.099342
8000000000 -11.531112 -88.929802 23.587614 22.891676 -58.481468 102.23344 -14.192588 -101.97614
8200000000 -12.037311 -112.91142 23.591261 -3.685945 -58.608643 86.173256 -14.527147 -125.74236
8400000000 -12.427782 -136.53249 23.575874 -29.569439 -59.598072 62.601456 -14.563436 -146.48355
8600000000 -12.756326 -160.13686 23.595438 -55.726406 -58.496197 35.529369 -14.263647 -169.52713
8800000000 -12.981022 177.23785 23.575195 -81.652443 -58.953003 8.8101053 -14.224976 168.62427
9000000000 -13.102811 155.2829 23.514585 -107.38367 -57.837456 -11.44542 -14.213678 147.94716
9200000000 -13.216303 134.46136 23.503748 -133.03598 -56.698723 -35.655895 -13.811187 128.52876
9400000000 -13.210237 114.61308 23.461472 -158.62677 -56.68174 -55.491405 -13.790676 107.95791
9600000000 -13.156716 96.266556 23.405918 175.95168 -57.391842 -83.567429 -13.680707 90.35157
9800000000 -13.099371 78.174324 23.374077 150.89737 -58.748631 -88.069031 -13.400434 72.069946
10000000000 -12.992225 61.706921 23.363466 125.28926 -56.125248 -134.40701 -13.55134 53.790783
10200000000 -12.916765 44.958496 23.303368 100.31352 -57.786663 -154.38023 -13.774751 37.357574
10400000000 -12.784011 29.166264 23.304068 75.464401 -56.257504 -175.88853 -13.842937 20.568724
10600000000 -12.655049 13.311462 23.312784 50.288952 -58.505924 173.26083 -14.119549 2.2042236
10800000000 -12.561084 -2.1946387 23.288311 25.222034 -57.17968 133.10196 -14.654958 -11.882257
11000000000 -12.431969 -18.267662 23.316452 0.46121818 -56.947731 121.57734 -14.634809 -28.797127
11200000000 -12.373721 -33.695179 23.327051 -24.646936 -58.489891 93.987724 -15.654258 -45.766685
11400000000 -12.273058 -49.839203 23.320812 -49.697842 -58.483456 80.74839 -16.164675 -58.24691
11600000000 -12.266036 -66.047363 23.320618 -74.443932 -59.319923 44.582878 -16.879303 -75.425232
11800000000 -12.19988 -82.183022 23.382002 -99.393639 -58.599022 30.817282 -18.092321 -87.257141
12000000000 -12.256387 -99.436577 23.350309 -124.40951 -59.973732 9.9600639 -18.914595 -100.46581
12200000000 -12.265452 -116.44225 23.393312 -148.96436 -58.362015 -19.146717 -19.701612 -114.84405
12400000000 -12.375286 -134.6367 23.46258 -174.14735 -56.637596 -32.001064 -20.849686 -126.34121
12600000000 -12.468515 -152.46211 23.474056 160.96835 -58.071537 -50.241627 -21.735567 -137.00215
12800000000 -12.684228 -171.80576 23.553547 136.30185 -60.276726 -73.345123 -22.184637 -153.8455
13000000000 -12.8761 168.99213 23.638996 111.09856 -59.416107 -105.50766 -23.642538 -165.38011
13200000000 -13.089659 147.6431 23.657597 86.053749 -58.05666 -116.23593 -22.856556 -177.52715
13400000000 -13.408154 126.5885 23.754097 61.183544 -58.71981 -138.00024 -23.641306 160.20074
13600000000 -13.629555 103.9552 23.838673 35.898586 -59.171898 -168.4846 -24.419838 148.14749
13800000000 -13.963672 80.207748 23.866745 10.479458 -58.149395 -177.82553 -23.834749 125.99818
14000000000 -14.066253 55.654598 23.940199 -14.563741 -61.326668 164.45898 -24.897821 100.36
14200000000 -14.244786 30.665346 24.041157 -40.122623 -58.41074 144.06036 -25.785229 81.629021
14400000000 -14.025532 5.0858583 24.047764 -65.478699 -59.961006 120.57101 -25.555334 52.308666
14600000000 -13.849945 -20.925251 24.111349 -90.621803 -58.663208 105.63075 -24.747349 20.418474
14800000000 -13.491977 -45.808414 24.200933 -116.38251 -59.734371 84.134163 -25.299307 -12.25596
15000000000 -13.023689 -71.214828 24.217533 -141.87331 -59.870495 73.086365 -22.997707 -35.02108
15200000000 -12.603149 -94.623688 24.254625 -167.08185 -58.834625 36.966713 -21.342796 -65.068939
15400000000 -12.143071 -117.25661 24.323639 167.29581 -58.303295 19.456396 -21.227489 -87.937553
15600000000 -11.858926 -139.1808 24.372028 141.88124 -60.494705 -9.1569004 -19.395372 -103.09342
15800000000 -11.701652 -161.15108 24.438543 116.95997 -59.75565 -19.228207 -18.799955 -127.85915
16000000000 -11.659592 178.04543 24.567652 91.524178 -57.352787 -53.500984 -18.546495 -142.41597
16200000000 -11.753427 156.675 24.686602 65.848602 -58.119938 -72.75914 -17.826134 -156.53438
16400000000 -12.06928 135.51018 24.869902 40.62566 -60.35981 -108.68994 -17.837313 -172.5939
16600000000 -12.570741 113.32557 25.153969 14.775344 -58.576401 -131.13423 -18.175694 175.65428
16800000000 -13.269121 89.545624 25.362898 -11.797756 -59.23597 -146.28836 -18.026255 165.33711
17000000000 -14.371109 61.417984 25.661232 -38.439148 -57.526634 -160.40331 -18.831623 153.92361
17200000000 -15.477658 28.597431 26.00736 -65.814911 -58.282623 163.93854 -20.017782 151.08884
17400000000 -16.00766 -13.671021 26.24733 -94.261391 -57.144413 131.97565 -20.429729 148.11908
17600000000 -15.465232 -58.703354 26.425175 -122.97311 -59.113625 90.48558 -21.411701 154.04294
17800000000 -13.473602 -100.82375 26.612583 -152.51166 -61.841331 53.813267 -19.550539 166.64043
18000000000 -11.305988 -135.70702 26.606649 177.62498 -59.451073 27.110867 -17.40226 163.29665
18200000000 -9.3530121 -166.0631 26.466732 147.4147 -58.957806 9.3497314 -15.788939 157.94603
18400000000 -7.85744 165.99939 26.270052 117.39797 -57.606625 -33.415737 -13.28679 146.2271
18600000000 -6.6778765 140.31326 25.943556 87.109093 -58.167042 -57.447453 -12.345809 129.34302
18800000000 -5.8943672 114.93713 25.459459 57.598236 -58.48111 -105.26151 -11.404596 115.30649
19000000000 -5.3736238 91.112633 25.011314 28.347517 -58.312916 -132.68645 -10.608732 97.759315
19200000000 -5.0750098 67.150742 24.497229 -1.0259565 -60.563358 -179.49573 -10.349471 78.061356
19400000000 -4.9872622 43.11211 23.921349 -29.572824 -56.566715 168.4899 -10.353414 61.784676
19600000000 -5.0721951 18.974281 23.397486 -58.402607 -61.157158 134.58501 -10.239616 41.866417
19800000000 -5.325254 -6.222404 22.766811 -87.629875 -56.090317 102.72842 -10.734491 19.942987
20000000000 -5.703588 -32.285439 22.0557 -116.8094 -59.105556 76.444855 -11.312578 -0.08034429
20200000000 -6.2352328 -58.695927 21.218941 -145.74127 -57.792042 46.035496 -11.531192 -23.754042
20400000000 -6.849865 -85.633423 20.310858 -174.8252 -57.796349 15.325384 -12.411271 -51.108402
20600000000 -7.4242339 -112.32867 19.158474 156.60374 -59.2948 -24.479132 -13.068075 -77.034447
20800000000 -8.133935 -137.84474 17.864241 129.3606 -58.852234 -42.693237 -12.745244 -104.20539
21000000000 -8.6800203 -161.08315 16.455965 103.57477 -58.624714 -65.137634 -12.635466 -135.10715
21200000000 -8.9362745 177.99472 14.978036 80.160164 -61.003464 -89.695885 -12.425989 -158.68463
21400000000 -8.7429876 159.42082 13.803645 59.971027 -59.347115 -90.481483 -11.325763 175.75798
21600000000 -8.015646 140.65854 13.148713 39.577469 -58.641098 -114.15912 -10.519948 151.89435
21800000000 -7.0984988 120.43827 12.735512 17.792557 -58.733822 -128.37614 -9.7027454 131.33499
22000000000 -6.34197 99.58886 12.399435 -5.5305276 -58.30653 -142.76314 -8.8068953 111.80194
22200000000 -5.6955433 78.156921 11.988527 -29.934708 -59.238052 172.77022 -8.0777187 91.683235
22400000000 -5.3073745 57.445198 11.404494 -55.035473 -57.525387 171.16304 -7.6865072 73.704071
22600000000 -4.9830637 37.114666 10.778264 -79.040359 -57.122288 122.73087 -7.0413566 56.577343
22800000000 -4.857306 17.375896 10.203329 -103.30324 -59.27552 119.46792 -6.5598297 38.896305
23000000000 -4.7495728 -2.2915633 9.518218 -127.73615 -58.86956 85.781578 -6.4757004 21.73209
23200000000 -4.749002 -21.71681 8.8661203 -150.95123 -59.058655 73.595253 -6.1243033 5.9193349
23400000000 -4.7391796 -41.111877 8.3951168 -174.82542 -59.912613 53.389194 -5.8703008 -13.120951
23600000000 -4.8184028 -60.747028 7.7317982 161.24435 -59.080338 20.713036 -6.0796041 -29.297083
23800000000 -4.9411082 -80.24659 7.1488953 138.11192 -56.460564 9.6479797 -5.7989035 -46.623402
24000000000 -5.1268883 -100.31416 6.6841693 114.08112 -58.415531 -22.294287 -5.9300432 -66.189018
24200000000 -5.3138981 -120.7534 6.0865798 89.668846 -60.538712 -60.369789 -5.953445 -84.204041
24400000000 -5.6016755 -141.48415 5.4299664 66.519913 -58.794399 -66.014236 -5.9919353 -104.11253
24600000000 -5.8411851 -162.70087 4.8913054 42.915714 -58.858967 -105.42307 -6.0174222 -124.78995
24800000000 -6.1478882 175.21088 4.2623682 19.291153 -60.929058 -115.44088 -6.1057858 -146.16263
25000000000 -6.4237556 152.78278 3.6275942 -2.4156859 -60.409679 -125.02895 -6.3023438 -167.55031
25200000000 -6.6765671 130.17297 3.3185563 -24.703226 -58.447826 -136.4229 -6.2736611 169.24057
25400000000 -6.846734 106.76633 2.95117 -48.424065 -63.698875 -158.36099 -6.647121 146.37201
25600000000 -7.0125175 83.962204 2.6440017 -71.338356 -60.391472 164.92462 -6.6698799 125.99213
25800000000 -7.088325 60.839031 2.4838626 -95.943054 -59.03334 143.02856 -6.6322198 102.1977
26000000000 -7.1964364 37.690384 1.9887176 -121.5013 -58.617764 118.69929 -7.0466418 81.590584
