# MHz S MA R 50

7000	0.97654453	122.74263	0.0031601488	-91.252132	0.0031601488	-91.252132	0.97660612	122.78077	
7037.5	0.97560586	120.57518	0.003249897	-94.020819	0.003249897	-94.020819	0.97566476	120.6168	
7075	0.97459431	118.33448	0.0033467133	-96.821799	0.0033467133	-96.821799	0.97465944	118.38118	
7112.5	0.97350348	116.01599	0.003451334	-99.656808	0.003451334	-99.656808	0.97357597	116.06762	
7150	0.972335	113.612	0.0035646096	-102.52778	0.0035646096	-102.52778	0.97240162	113.66946	
7187.5	0.97106089	111.11715	0.0036875279	-105.4369	0.0036875279	-105.4369	0.97114699	111.18098	
7225	0.96968827	108.52202	0.0038212412	-108.38659	0.0038212412	-108.38659	0.96977623	108.5932	
7262.5	0.96817866	105.81932	0.0039671014	-111.37964	0.0039671014	-111.37964	0.96828654	105.89809	
7300	0.96653686	102.99857	0.0041267029	-114.41924	0.0041267029	-114.41924	0.96665427	103.0864	
7337.5	0.96473072	100.04923	0.0043019371	-117.5091	0.0043019371	-117.5091	0.96486074	100.14678	
7375	0.96273189	96.958779	0.0044950603	-120.65363	0.0044950603	-120.65363	0.96288585	97.067374	
7412.5	0.96051631	93.713131	0.0047087804	-123.85811	0.0047087804	-123.85811	0.96069043	93.834327	
7450	0.95805281	90.296344	0.0049463652	-127.12906	0.0049463652	-127.12906	0.95824716	90.431399	
7487.5	0.95528368	86.689966	0.0052117786	-130.47466	0.0052117786	-130.47466	0.9555122	86.840726	
7525	0.9521576	82.872595	0.0055098489	-133.90547	0.0055098489	-133.90547	0.95242581	83.041304	
7562.5	0.9486142	78.8193	0.0058464702	-137.43535	0.0058464702	-137.43535	0.94891671	79.008725	
7600	0.94454044	74.500469	0.0062288294	-141.08303	0.0062288294	-141.08303	0.94490387	74.712866	
7618.75	0.9422832	72.23075	0.0064398147	-142.95876	0.0064398147	-142.95876	0.9426657	72.456342	
7637.5	0.93983965	69.880849	0.006665622	-144.87434	0.006665622	-144.87434	0.94026058	70.120443	
7656.25	0.93721292	67.445455	0.0069075924	-146.83468	0.0069075924	-146.83468	0.93765769	67.699999	
7675	0.93434549	64.918202	0.0071671584	-148.84564	0.0071671584	-148.84564	0.93483726	65.189159	
7693.75	0.93124824	62.291893	0.0074458396	-150.91475	0.0074458396	-150.91475	0.93177468	62.580779	
7712.5	0.92784945	59.559408	0.0077451547	-153.0492	0.0077451547	-153.0492	0.92842124	59.867412	
7731.25	0.92413943	56.712137	0.0080664594	-155.26018	0.0080664594	-155.26018	0.92476323	57.040781	
7750	0.92005219	53.740404	0.008411219	-157.56143	0.008411219	-157.56143	0.92072964	54.09158	
7768.75	0.91553533	50.633052	0.0087801601	-159.96661	0.0087801601	-159.96661	0.91627584	51.008937	
7787.5	0.91051182	47.377219	0.009173491	-162.49556	0.009173491	-162.49556	0.91133145	47.780486	
7806.25	0.90490649	43.959448	0.0095899746	-165.17169	0.0095899746	-165.17169	0.90581226	44.392596	
7825	0.89860533	40.362836	0.010026114	-168.02422	0.010026114	-168.02422	0.89961008	40.828296	
7843.75	0.89148441	36.56757	0.010474442	-171.0884	0.010474442	-171.0884	0.89258942	37.069659	
7862.5	0.8833597	32.551632	0.010921921	-174.41103	0.010921921	-174.41103	0.88458676	33.093462	
7881.25	0.87402268	28.288546	0.011345576	-178.04919	0.011345576	-178.04919	0.87539806	28.874251	
7900	0.86318748	23.745946	0.011705684	177.9238	0.011705684	177.9238	0.86472536	24.380948	
7912.5	0.85495751	20.544907	0.01187962	174.97713	0.01187962	174.97713	0.85662585	21.215285	
7925	0.84576761	17.189342	0.011966963	171.77937	0.011966963	171.77937	0.84756228	17.899014	
7937.5	0.83544112	13.665814	0.011928352	168.28783	0.011928352	168.28783	0.83738971	14.41693	
7950	0.82376829	9.957213	0.01170471	164.44486	0.01170471	164.44486	0.82588396	10.753728	
7956.25	0.81734887	8.0273977	0.011500156	162.36969	0.011500156	162.36969	0.81955456	8.8487993	
7962.5	0.81050714	6.0452045	0.011216802	160.17479	0.011216802	160.17479	0.81280192	6.8912342	
7968.75	0.80318287	4.0064928	0.010840206	157.84721	0.010840206	157.84721	0.80556861	4.8787138	
7975	0.79533147	1.9091284	0.010352802	155.36757	0.010352802	155.36757	0.79782829	2.8085038	
7981.25	0.78690748	-0.24989655	0.0097326923	152.70593	0.0097326923	152.70593	0.78950527	0.67799563	
7987.5	0.77785469	-2.4734177	0.0089554521	149.82199	0.0089554521	149.82199	0.78056312	-1.5157313	
7993.75	0.76811397	-4.7642859	0.0079918419	146.64597	0.0079918419	146.64597	0.77093316	-3.775514	
8000	0.75760106	-7.1254854	0.0068079215	143.04168	0.0068079215	143.04168	0.76053214	-6.1042246	
8006.25	0.74625246	-9.5593872	0.0053643608	138.68092	0.0053643608	138.68092	0.74930727	-8.503505	
8012.5	0.73397418	-12.069296	0.0036189375	132.45601	0.0036189375	132.45601	0.73714824	-10.977473	
8018.75	0.72068106	-14.656562	0.0015566534	116.46536	0.0015566534	116.46536	0.72397552	-13.527777	
8025	0.70627294	-17.322278	0.0012521774	-18.025375	0.0012521774	-18.025375	0.70968081	-16.154216	
8028.125	0.69862018	-18.684701	0.0026386423	-34.714721	0.0026386423	-34.714721	0.70209139	-17.496325	
8031.25	0.69064981	-20.06745	0.0042143014	-41.429283	0.0042143014	-41.429283	0.69417047	-18.857788	
8034.375	0.6823323	-21.46881	0.0059499177	-45.749727	0.0059499177	-45.749727	0.68592439	-20.237524	
8037.5	0.67369056	-22.889925	0.0078493933	-49.179316	0.0078493933	-49.179316	0.67732284	-21.636473	
8040.625	0.66468058	-24.329739	0.0099227288	-52.206653	0.0099227288	-52.206653	0.66836372	-23.053046	
8043.75	0.65529543	-25.786895	0.012181776	-55.038343	0.012181776	-55.038343	0.659036	-24.486838	
8046.875	0.64552457	-27.262095	0.014639736	-57.777648	0.014639736	-57.777648	0.64932162	-25.936805	
8050	0.6353677	-28.752599	0.017310099	-60.480224	0.017310099	-60.480224	0.63920365	-27.402889	
8053.125	0.62479791	-30.257757	0.020207409	-63.182104	0.020207409	-63.182104	0.62868803	-28.881904	
8056.25	0.61381048	-31.775732	0.023347986	-65.906973	0.023347986	-65.906973	0.61773994	-30.372338	
8059.375	0.60240421	-33.304136	0.026745299	-68.66841	0.026745299	-68.66841	0.6063755	-31.874176	
8062.5	0.59056994	-34.841803	0.03041539	-71.478436	0.03041539	-71.478436	0.59457507	-33.382442	
8065.625	0.57831271	-36.385023	0.034373055	-74.345298	0.034373055	-74.345298	0.58234202	-34.894652	
8068.75	0.56563076	-37.92971	0.038634846	-77.27556	0.038634846	-77.27556	0.56968849	-36.408259	
8071.875	0.55252814	-39.472978	0.04321316	-80.273579	0.04321316	-80.273579	0.55660136	-37.919313	
8075	0.53901866	-41.010133	0.048123437	-83.343151	0.048123437	-83.343151	0.54310489	-39.422496	
8076.5625	0.53211305	-41.77536	0.050706315	-84.905448	0.050706315	-84.905448	0.53620877	-40.16922	
8078.125	0.52511611	-42.53652	0.053377319	-86.486673	0.053377319	-86.486673	0.52920856	-40.912256	
8079.6875	0.5180227	-43.294001	0.056136292	-88.086835	0.056136292	-88.086835	0.52212855	-41.650672	
8081.25	0.51084222	-44.046665	0.058985777	-89.705971	0.058985777	-89.705971	0.51494274	-42.383862	
8082.8125	0.50357647	-44.792431	0.061925044	-91.344318	0.061925044	-91.344318	0.50768189	-43.109936	
8084.375	0.49623367	-45.533139	0.064957132	-93.001861	0.064957132	-93.001861	0.50033289	-43.829836	
8085.9375	0.48880784	-46.265738	0.068080851	-94.6786	0.068080851	-94.6786	0.49291165	-44.541354	
8087.5	0.48131365	-46.989438	0.071297809	-96.374536	0.071297809	-96.374536	0.48540491	-45.243718	
8089.0625	0.47374465	-47.704264	0.074609401	-98.089485	0.074609401	-98.089485	0.47784168	-45.936078	
8090.625	0.46612195	-48.408313	0.0780138	-99.823337	0.0780138	-99.823337	0.47022244	-46.617433	
8092.1875	0.45844636	-49.102239	0.081512041	-101.57613	0.081512041	-101.57613	0.46253333	-47.286759	
8093.75	0.4507168	-49.783125	0.085103662	-103.347	0.085103662	-103.347	0.4548027	-47.942745	
8095.3125	0.44295441	-50.450304	0.088788544	-105.13689	0.088788544	-105.13689	0.4470304	-48.584023	
8096.875	0.43515223	-51.103304	0.092566229	-106.94386	0.092566229	-106.94386	0.43923122	-49.210809	
8098.4375	0.42732989	-51.739303	0.096434978	-108.76882	0.096434978	-108.76882	0.43139744	-49.820653	
8100	0.41948194	-52.359455	0.10039502	-110.61088	0.10039502	-110.61088	0.42355672	-50.411448	
8101.5625	0.41163578	-52.961403	0.1044442	-112.46968	0.1044442	-112.46968	0.41569577	-50.983295	
8103.125	0.4037765	-53.543318	0.10858131	-114.3453	0.10858131	-114.3453	0.40784391	-51.535678	
8104.6875	0.39593547	-54.106363	0.11280164	-116.23704	0.11280164	-116.23704	0.40000094	-52.066348	
8106.25	0.38810406	-54.647325	0.11710621	-118.14415	0.11710621	-118.14415	0.39217449	-52.573754	
8107.8125	0.3802979	-55.165348	0.12149615	-120.06478	0.12149615	-120.06478	0.3843743	-53.058254	
8109.375	0.37253293	-55.659405	0.12596167	-122.00133	0.12596167	-122.00133	0.37661458	-53.516829	
8110.9375	0.3648115	-56.128725	0.13050787	-123.94967	0.13050787	-123.94967	0.36891162	-53.948305	
8112.5	0.35715023	-56.572002	0.13513317	-125.90976	0.13513317	-125.90976	0.36124833	-54.353357	
8114.0625	0.34953835	-56.988708	0.13981796	-127.88541	0.13981796	-127.88541	0.3536617	-54.728998	
8115.625	0.34199858	-57.375903	0.14458317	-129.86859	0.14458317	-129.86859	0.34615768	-55.076322	
8117.1875	0.33454617	-57.735559	0.14940238	-131.86663	0.14940238	-131.86663	0.33872965	-55.390858	
8118.75	0.32717708	-58.065527	0.15428517	-133.8734	0.15428517	-133.8734	0.33140099	-55.675529	
8120.3125	0.31990125	-58.362929	0.15922422	-135.88806	0.15922422	-135.88806	0.32416845	-55.928058	
8121.875	0.31273554	-58.629665	0.16422516	-137.90984	0.16422516	-137.90984	0.31705128	-56.146537	
8123.4375	0.30567187	-58.864905	0.16926765	-139.94393	0.16926765	-139.94393	0.3100497	-56.330946	
8125	0.29873	-59.066505	0.17436493	-141.98322	0.17436493	-141.98322	0.30317829	-56.480805	
8126.5625	0.2919112	-59.23451	0.17950422	-144.03153	0.17950422	-144.03153	0.29643275	-56.597805	
8128.125	0.28521725	-59.369046	0.18467503	-146.0819	0.18467503	-146.0819	0.28983126	-56.677285	
8129.6875	0.2786554	-59.468568	0.18989285	-148.1379	0.18989285	-148.1379	0.28336485	-56.722682	
8131.25	0.2722333	-59.531467	0.19513476	-150.19929	0.19513476	-150.19929	0.27705243	-56.729218	
8132.8125	0.26595237	-59.562746	0.20040558	-152.26446	0.20040558	-152.26446	0.27088869	-56.703561	
8134.375	0.25982248	-59.556258	0.20569787	-154.33238	0.20569787	-154.33238	0.26488483	-56.639891	
8135.9375	0.25382849	-59.515113	0.21101374	-156.4033	0.21101374	-156.4033	0.25904428	-56.538749	
8137.5	0.24798794	-59.439218	0.21634689	-158.4762	0.21634689	-158.4762	0.25335966	-56.404641	
8139.0625	0.24230145	-59.326201	0.22169182	-160.54969	0.22169182	-160.54969	0.24784581	-56.234916	
8140.625	0.23676825	-59.179007	0.22704127	-162.62369	0.22704127	-162.62369	0.24249571	-56.026182	
8142.1875	0.23139453	-58.993354	0.23240896	-164.69833	0.23240896	-164.69833	0.23731071	-55.784937	
8143.75	0.22616614	-58.773391	0.23776894	-166.77172	0.23776894	-166.77172	0.23229228	-55.509516	
8145.3125	0.221093	-58.51847	0.24313371	-168.84466	0.24313371	-168.84466	0.22744466	-55.201765	
8146.875	0.21617668	-58.226677	0.24849678	-170.91582	0.24849678	-170.91582	0.22276138	-54.858795	
8148.4375	0.21142217	-57.899821	0.25385033	-172.98489	0.25385033	-172.98489	0.21823868	-54.481244	
8150	0.20681748	-57.537094	0.259196	-175.05179	0.259196	-175.05179	0.21388897	-54.073069	
8151.5625	0.20236461	-57.136846	0.26452512	-177.11564	0.26452512	-177.11564	0.20970604	-53.63174	
8153.125	0.19806865	-56.701456	0.26984787	-179.17649	0.26984787	-179.17649	0.20568803	-53.162415	
8154.6875	0.19392614	-56.232086	0.27515379	178.76619	0.27515379	178.76619	0.20183478	-52.660568	
8156.25	0.18993089	-55.725925	0.28044144	176.71276	0.28044144	176.71276	0.19813618	-52.130089	
8157.8125	0.1860935	-55.183533	0.28570833	174.66355	0.28570833	174.66355	0.19460191	-51.572399	
8159.375	0.18241292	-54.610932	0.29095119	172.61851	0.29095119	172.61851	0.19122594	-50.985496	
8160.9375	0.17888656	-53.998765	0.29617504	170.57864	0.29617504	170.57864	0.18800385	-50.371582	
8162.5	0.17550736	-53.356012	0.30136461	168.54335	0.30136461	168.54335	0.1849462	-49.737082	
8165.625	0.16921497	-51.965246	0.31167182	164.48868	0.31167182	164.48868	0.17928939	-48.389284	
8168.75	0.16355082	-50.450548	0.32185032	160.45766	0.32185032	160.45766	0.17424849	-46.962755	
8171.875	0.15851805	-48.821215	0.33190693	156.44871	0.33190693	156.44871	0.16981729	-45.465227	
8175	0.15411749	-47.090351	0.34181432	152.46263	0.34181432	152.46263	0.16598766	-43.916221	
8176.5625	0.15215301	-46.195652	0.34672068	150.47976	0.34672068	150.47976	0.16429909	-43.128062	
8178.125	0.15035395	-45.282933	0.35157701	148.50353	0.35157701	148.50353	0.16275395	-42.335496	
8179.6875	0.14872107	-44.354357	0.35640035	146.53287	0.35640035	146.53287	0.16134514	-41.537695	
8181.25	0.1472473	-43.420472	0.36118785	144.56872	0.36118785	144.56872	0.1600854	-40.741825	
8182.8125	0.14592453	-42.480732	0.36593497	142.61184	0.36593497	142.61184	0.15895957	-39.949559	
8184.375	0.14476309	-41.536511	0.37064195	140.66154	0.37064195	140.66154	0.15797991	-39.163068	
8185.9375	0.14374984	-40.597015	0.37530865	138.71714	0.37530865	138.71714	0.15712384	-38.38645	
8187.5	0.14289216	-39.663053	0.37993503	136.78002	0.37993503	136.78002	0.15639393	-37.623586	
8190.625	0.14161114	-37.836127	0.38906479	132.92523	0.38906479	132.92523	0.15530693	-36.147829	
8193.75	0.14087721	-36.091273	0.39802667	129.09707	0.39802667	129.09707	0.15468177	-34.758968	
8196.875	0.14065082	-34.459723	0.40682392	125.29374	0.40682392	125.29374	0.15446062	-33.481528	
8200	0.14085938	-32.973564	0.41545253	121.51887	0.41545253	121.51887	0.1545995	-32.332624	
8202.604167	0.14133262	-31.859622	0.42252304	118.39196	0.42252304	118.39196	0.15494255	-31.486011	
8205.208333	0.14202245	-30.872083	0.42948169	115.28342	0.42948169	115.28342	0.1554598	-30.74506	
8207.8125	0.14289583	-30.017172	0.43631988	112.19157	0.43631988	112.19157	0.15610474	-30.117734	
8210.416667	0.14389926	-29.300103	0.44305385	109.11709	0.44305385	109.11709	0.15686301	-29.601174	
8213.020833	0.14499893	-28.720773	0.44966994	106.06021	0.44966994	106.06021	0.1576776	-29.200192	
8215.625	0.14615259	-28.278532	0.45618902	103.0206	0.45618902	103.0206	0.15851871	-28.913089	
8218.229167	0.14731847	-27.970566	0.46260371	99.996945	0.46260371	99.996945	0.1593477	-28.738331	
8220.833333	0.1484553	-27.792334	0.46890434	96.989159	0.46890434	96.989159	0.16014388	-28.66988	
8223.4375	0.14953349	-27.737893	0.47511537	93.99657	0.47511537	93.99657	0.16086931	-28.704376	
8226.041667	0.15051252	-27.800418	0.48121615	91.019318	0.48121615	91.019318	0.16148714	-28.838462	
8228.645833	0.15137329	-27.971515	0.48723021	88.056725	0.48723021	88.056725	0.1619862	-29.062918	
8231.25	0.1520768	-28.244465	0.49314622	85.108283	0.49314622	85.108283	0.16233787	-29.371942	
8233.854167	0.15260379	-28.610609	0.49896786	82.17354	0.49896786	82.17354	0.16250511	-29.761893	
8236.458333	0.15293333	-29.060608	0.50470386	79.252126	0.50470386	79.252126	0.16249484	-30.221158	
8239.0625	0.1530463	-29.587096	0.51034742	76.343877	0.51034742	76.343877	0.16226867	-30.746364	
8241.666667	0.15292981	-30.180171	0.51590992	73.447446	0.51590992	73.447446	0.16182316	-31.328088	
8244.270833	0.15257104	-30.831085	0.52138435	70.563135	0.52138435	70.563135	0.16113669	-31.960833	
8246.875	0.15194842	-31.534135	0.52677156	67.690208	0.52677156	67.690208	0.160204	-32.635992	
8249.479166	0.15106466	-32.278125	0.53209095	64.827762	0.53209095	64.827762	0.15902824	-33.343923	
8252.083333	0.14990523	-33.056875	0.53731371	61.975059	0.53731371	61.975059	0.15759451	-34.079091	
8254.6875	0.1484789	-33.85799	0.54246452	59.132972	0.54246452	59.132972	0.15589461	-34.833947	
8257.291666	0.14676992	-34.676686	0.54752793	56.300355	0.54752793	56.300355	0.1539387	-35.598512	
8259.895833	0.14478646	-35.50198	0.55252206	53.475836	0.55252206	53.475836	0.15171786	-36.36611	
8262.5	0.1425359	-36.322883	0.55742959	50.660837	0.55742959	50.660837	0.1492409	-37.126814	
8265.104166	0.14001806	-37.131297	0.56226033	47.853877	0.56226033	47.853877	0.1465228	-37.867404	
8267.708333	0.13724777	-37.913611	0.56700796	45.05359	0.56700796	45.05359	0.14355755	-38.582829	
8270.3125	0.13421823	-38.664475	0.57166964	42.261958	0.57166964	42.261958	0.14036105	-39.259393	
8272.916666	0.13096065	-39.363932	0.57626636	39.476749	0.57626636	39.476749	0.1369439	-39.886032	
8275.520833	0.12748105	-40.002205	0.58076459	36.698828	0.58076459	36.698828	0.1333255	-40.448033	
8278.125	0.12379497	-40.563694	0.58518596	33.926592	0.58518596	33.926592	0.12952058	-40.930786	
8280.729166	0.11992382	-41.030327	0.58951615	31.160774	0.58951615	31.160774	0.12554913	-41.319054	
8283.333333	0.11589157	-41.383214	0.59376624	28.401141	0.59376624	28.401141	0.12143594	-41.594004	
8285.9375	0.11172426	-41.600917	0.59792976	25.647087	0.59792976	25.647087	0.117208	-41.734501	
8288.541666	0.10745231	-41.657496	0.60200097	22.898657	0.60200097	22.898657	0.11289506	-41.718886	
8291.145833	0.10311028	-41.526018	0.60598242	20.156218	0.60598242	20.156218	0.10853301	-41.521044	
8293.75	0.098737594	-41.175007	0.60986836	17.419148	0.60986836	17.419148	0.104163	-41.113741	
8296.354166	0.094380165	-40.570281	0.61365949	14.686393	0.61365949	14.686393	0.099828419	-40.466517	
8298.958333	0.090090313	-39.674552	0.61736032	11.959543	0.61736032	11.959543	0.09558203	-39.548456	
8301.5625	0.085926608	-38.448411	0.62097506	9.2385837	0.62097506	9.2385837	0.091480791	-38.327239	
8304.166667	0.081956203	-36.853539	0.62448173	6.5222239	0.62448173	6.5222239	0.087589125	-36.773084	
8306.770833	0.078255299	-34.856762	0.62788851	3.8111006	0.62788851	3.8111006	0.083976978	-34.861674	
8309.375	0.074905038	-32.433411	0.63120743	1.1052141	0.63120743	1.1052141	0.080721828	-32.579307	
8311.979167	0.071994034	-29.578157	0.63441593	-1.5953984	0.63441593	-1.5953984	0.07790177	-29.926239	
8314.583333	0.06960948	-26.311059	0.63753687	-4.2907441	0.63753687	-4.2907441	0.075595812	-26.927056	
8317.1875	0.067836125	-22.687759	0.64055821	-6.9805881	0.64055821	-6.9805881	0.073874977	-23.631509	
8319.791667	0.066742162	-18.79845	0.64347317	-9.664917	0.64347317	-9.664917	0.072798313	-20.119406	
8322.395833	0.066373387	-14.770716	0.64629996	-12.343417	0.64629996	-12.343417	0.072403712	-16.491941	
8325	0.066747019	-10.74832	0.64903296	-15.01626	0.64903296	-15.01626	0.072706173	-12.868746	
8327.604167	0.067848156	-6.8771501	0.65166534	-17.684513	0.65166534	-17.684513	0.073692443	-9.3662015	
8330.208333	0.069633333	-3.2837842	0.65420589	-20.346011	0.65420589	-20.346011	0.075326106	-6.0900106	
8332.8125	0.072037041	-0.061441203	0.65666077	-23.002104	0.65666077	-23.002104	0.07754902	-3.1209702	
8335.416667	0.074976327	2.7337625	0.65902166	-25.651697	0.65902166	-25.651697	0.080292208	-0.5121652	
8338.020833	0.078364846	5.0802633	0.66130153	-28.296531	0.66130153	-28.296531	0.083478192	1.7103793	
8340.625	0.082119087	6.9827082	0.66349553	-30.933989	0.66349553	-30.933989	0.087028341	3.5430371	
8343.229167	0.086156342	8.4638812	0.66560572	-33.566875	0.66560572	-33.566875	0.090866596	4.9987052	
8345.833334	0.090403785	9.5572413	0.66763867	-36.19243	0.66763867	-36.19243	0.094925562	6.1004998	
8348.4375	0.094796671	10.300089	0.66960675	-38.812283	0.66960675	-38.812283	0.09914016	6.8764905	
8351.041667	0.099277893	10.730196	0.67149436	-41.426488	0.67149436	-41.426488	0.10345216	7.3591302	
8353.645834	0.10379714	10.883943	0.67331776	-44.034811	0.67331776	-44.034811	0.1078115	7.5776107	
8356.25	0.10830676	10.795335	0.67507453	-46.636817	0.67507453	-46.636817	0.11218547	7.5612313	
8358.854167	0.11277607	10.493383	0.67678681	-49.233145	0.67678681	-49.233145	0.11652399	7.3366482	
8361.458334	0.11717175	10.004637	0.67842427	-51.823989	0.67842427	-51.823989	0.12080211	6.9282918	
8364.0625	0.12146477	9.3529793	0.68002341	-54.40904	0.68002341	-54.40904	0.12497868	6.3579111	
8366.666667	0.12562865	8.5576017	0.68156916	-56.98889	0.68156916	-56.98889	0.12903571	5.6447609	
8371.296297	0.13264533	6.8444889	0.68420859	-61.562502	0.68420859	-61.562502	0.13588322	4.0731976	
8375.925926	0.13908081	4.8148904	0.68672603	-66.120192	0.68672603	-66.120192	0.14216291	2.1801877	
8380.555556	0.1448515	2.5327301	0.6891551	-70.663499	0.6891551	-70.663499	0.14780002	0.027876449	
8385.185186	0.14990005	0.047659834	0.69149993	-75.194063	0.69149993	-75.194063	0.15272665	-2.3335682	
