!Keysight Technologies,N5244A,MY52442000,A.10.40.14
!Date: Thursday, July 16, 2020 10:51:54
!Correction: S11(Full 2 Port(1,2)) 
!S21(Full 2 Port(1,2)) 
!S12(Full 2 Port(1,2)) 
!S22(Full 2 Port(1,2)) 
!S2P File: Measurements: S11, S21, S12, S22:
# Hz S  dB   R 50
10000000 -0.7834577 177.44528 -80.577377 -1.2097206 -59.356167 -36.892078 -26.305822 174.33707
20000000 -0.89523166 176.43423 -56.334301 -44.755344 -70.899368 15.215638 -26.083433 175.20297
30000000 -0.91492033 175.14334 -63.21508 87.572769 -64.993782 -166.4707 -26.095415 172.29163
40000000 -0.94546825 173.802 -67.916718 66.918205 -71.402451 157.24968 -26.510452 168.41139
50000000 -0.94390714 172.33119 -72.22187 159.619 -67.362556 65.67366 -26.51236 167.10558
60000000 -0.93321162 171.04871 -70.72049 -50.141003 -74.005638 57.380688 -26.472979 164.36295
70000000 -0.93906081 169.71446 -67.518402 108.26783 -76.584488 -131.16776 -26.533327 161.35065
80000000 -0.93804061 168.11308 -63.71899 171.5218 -68.971085 120.23782 -26.53249 157.92035
90000000 -0.94455069 166.64909 -78.866135 -5.5806251 -68.188019 -123.28498 -26.249535 156.61823
100000000 -0.97114736 165.10568 -73.18766 20.174124 -80.554657 106.26934 -26.366772 154.37949
500000000 -1.0869181 109.00905 -47.859444 60.119457 -74.002022 -95.740837 -23.03224 82.788666
1000000000 -1.1466894 40.352665 -27.229433 12.7995 -80.808426 -72.046806 -19.089052 21.068041
1500000000 -1.2355565 -27.878103 -11.594728 -39.168949 -76.340645 -173.0399 -16.237864 -33.477974
2000000000 -2.3190327 -94.419144 0.81718379 -136.05942 -66.232117 -29.408009 -14.149102 -90.548058
2500000000 -2.8409822 -159.4882 6.5494332 148.75229 -64.757706 -146.71294 -11.901177 -153.49556
3000000000 -3.6662292 130.55539 13.719674 75.681175 -61.658806 132.42302 -9.4399757 134.5114
3500000000 -4.9465013 57.789085 20.143595 -12.329585 -66.865128 7.7397356 -7.7209816 52.48978
4000000000 -6.6628957 -13.259983 23.823513 -108.44904 -68.740875 -82.219398 -7.5352054 -27.256094
4200000000 -7.3675504 -39.494247 24.558872 -145.85771 -75.824043 -131.09322 -7.7003241 -55.348877
4400000000 -7.9731302 -63.855698 25.013449 178.03761 -67.362762 -169.31277 -7.899138 -82.024605
4600000000 -8.5081778 -86.498039 25.22784 142.96074 -68.5924 -153.16638 -8.1227865 -107.13216
4800000000 -8.8115797 -107.65626 25.254908 109.37861 -74.039215 35.619354 -8.3946314 -130.68825
5000000000 -8.9149847 -127.86691 25.220854 77.311089 -68.882378 84.789429 -8.535593 -153.87109
5200000000 -8.8430052 -147.90178 25.068485 46.271545 -70.338669 50.449871 -8.8697195 -176.08806
5400000000 -8.6601171 -167.89861 24.922409 16.601242 -63.313671 16.699589 -9.043457 163.619
5600000000 -8.4860268 171.99673 24.762419 -12.26628 -71.973999 -28.646357 -9.3692341 142.64905
5800000000 -8.3501902 151.91644 24.6262 -40.391663 -68.773415 -22.848799 -9.7162542 122.98808
6000000000 -8.2507362 131.90518 24.49157 -67.666664 -66.184502 -16.960339 -10.178395 103.17599
6200000000 -8.2403069 111.57731 24.456657 -94.705215 -67.490959 -41.921791 -10.530116 84.153008
6400000000 -8.2839718 91.387444 24.411102 -121.32445 -70.451752 -98.148804 -11.042342 64.265274
6600000000 -8.4158068 70.812508 24.414768 -147.55206 -68.344872 -73.331047 -11.601515 45.283043
6800000000 -8.6492519 49.964069 24.435455 -173.81436 -62.063938 -112.01151 -11.956925 25.234465
7000000000 -8.949645 28.953493 24.50642 160.04796 -63.096584 -134.28127 -12.594804 4.8888874
7200000000 -9.3290539 7.4515572 24.551956 133.87193 -61.893986 -159.20682 -13.06281 -14.600071
7400000000 -9.792593 -14.484579 24.64068 107.86402 -60.786404 -178.59512 -13.468724 -36.2155
7600000000 -10.292391 -36.910141 24.72991 81.713615 -62.723228 154.10515 -13.980736 -58.104073
7800000000 -10.863619 -59.781326 24.779469 55.58152 -59.839138 130.21815 -14.365444 -79.654617
8000000000 -11.438066 -83.154289 24.872057 29.585836 -58.364208 121.11889 -14.502593 -102.26932
8200000000 -12.019752 -107.40266 24.910465 3.2300026 -60.787331 85.110725 -14.809972 -126.43555
8400000000 -12.487861 -131.32137 24.931551 -22.606583 -59.654797 51.572643 -14.858096 -147.79858
8600000000 -12.894811 -155.42159 24.971451 -48.6758 -59.821018 33.496189 -14.625891 -171.23122
8800000000 -13.181257 -178.50519 24.980352 -74.551498 -57.129452 9.2777376 -14.57406 166.7023
9000000000 -13.370128 158.545 24.954998 -100.28672 -59.996983 -8.6234827 -14.442016 145.34904
9200000000 -13.517651 137.29767 24.960808 -125.93418 -59.147495 -33.378674 -14.101392 125.46373
9400000000 -13.537401 116.51138 24.937273 -151.52016 -57.692959 -49.574837 -13.976554 104.46238
9600000000 -13.505514 97.604454 24.905491 -176.9442 -56.620346 -79.763344 -13.80813 86.453568
9800000000 -13.391371 79.188705 24.890785 157.90622 -56.907124 -98.34481 -13.528461 68.077484
10000000000 -13.304404 62.891582 24.88205 132.38846 -56.7901 -124.53087 -13.585037 49.810863
10200000000 -13.179437 46.327915 24.847172 107.37908 -56.612808 -142.9352 -13.672329 33.074615
10400000000 -12.977495 30.947769 24.850674 82.437988 -57.427486 -170.92407 -13.755447 16.116026
10600000000 -12.763587 15.504554 24.863573 57.303711 -56.016533 175.53342 -13.955314 -2.1394444
10800000000 -12.585386 0.49545968 24.850712 32.261406 -58.161652 141.00314 -14.470189 -17.039158
11000000000 -12.381339 -14.905024 24.876919 7.3986931 -57.178673 130.06075 -14.569566 -34.230114
11200000000 -12.226702 -29.881153 24.88629 -17.622122 -57.452881 112.34167 -15.550074 -50.562214
11400000000 -12.065914 -45.294258 24.891794 -42.652565 -58.247841 77.183922 -16.197702 -65.026222
11600000000 -11.991637 -60.886555 24.89505 -67.415375 -57.174263 63.829723 -17.114975 -81.24337
11800000000 -11.883015 -76.762726 24.945419 -92.314789 -57.517803 49.84956 -18.471203 -93.906067
12000000000 -11.854023 -93.273331 24.934988 -117.25374 -56.651325 13.355555 -19.771534 -106.1608
12200000000 -11.830197 -109.72572 24.979176 -141.86536 -59.099037 -0.75874698 -21.146769 -119.52769
12400000000 -11.935272 -127.45835 25.040129 -166.9146 -59.57848 -27.835117 -22.654875 -127.91644
12600000000 -11.999951 -144.80406 25.06321 168.25307 -58.231838 -49.926651 -24.189592 -133.61098
12800000000 -12.234628 -163.84848 25.139057 143.55838 -57.298084 -70.405876 -25.087236 -144.41769
13000000000 -12.411733 177.23569 25.218012 118.49625 -61.344952 -93.198639 -26.574392 -146.03986
13200000000 -12.676806 156.21312 25.257504 93.52578 -60.084694 -117.57262 -25.672298 -155.1225
13400000000 -12.968236 134.84225 25.349882 68.64373 -58.86047 -130.33096 -26.69713 -168.15915
13600000000 -13.253222 112.28397 25.429394 43.441902 -56.926342 -153.72853 -26.694824 -174.11714
13800000000 -13.5275 88.493523 25.475479 18.18235 -60.270638 -168.94543 -27.041336 163.61313
14000000000 -13.642432 63.427193 25.553896 -6.9431248 -61.694435 -179.12592 -28.592968 144.12987
14200000000 -13.82622 38.622307 25.637825 -32.390854 -60.467407 147.24782 -30.046707 129.72223
14400000000 -13.607659 12.604136 25.66172 -57.688885 -57.814831 132.88074 -31.574894 93.872765
14600000000 -13.411382 -13.703149 25.727079 -82.891487 -59.545528 113.95465 -31.614649 41.907314
14800000000 -12.985384 -38.719563 25.798401 -108.52457 -59.686665 92.878036 -31.927324 -3.1260409
15000000000 -12.484104 -64.42939 25.823172 -133.9798 -59.251945 77.236511 -27.275221 -33.662609
15200000000 -12.027308 -88.038605 25.850595 -159.24118 -60.207726 59.590889 -24.452532 -65.128326
15400000000 -11.480921 -110.81872 25.90037 175.24213 -58.358437 35.300869 -23.335733 -86.167755
15600000000 -11.124652 -132.80786 25.934652 149.96745 -56.982319 -7.636343 -21.0021 -100.62631
15800000000 -10.913065 -154.61554 25.977804 125.00916 -58.036758 -7.2384372 -20.215071 -124.39413
16000000000 -10.799239 -175.16678 26.074299 99.82576 -57.772526 -47.71806 -19.450312 -137.90173
16200000000 -10.808049 163.91063 26.16855 74.519852 -58.692928 -50.36211 -18.639162 -150.85959
16400000000 -11.005465 143.26094 26.32929 49.577625 -58.962715 -83.890694 -18.445066 -165.43016
16600000000 -11.324198 122.35133 26.583485 24.146839 -61.527248 -109.4021 -18.38563 -176.43742
16800000000 -11.790943 100.51373 26.802427 -1.8385557 -57.958691 -141.14433 -18.012432 173.91992
17000000000 -12.657266 75.563362 27.111303 -27.969524 -57.89854 -162.45314 -18.318548 162.15942
17200000000 -13.605142 47.666878 27.466784 -54.746441 -59.57172 169.72586 -18.890043 157.76024
17400000000 -14.51101 12.004818 27.767675 -82.47419 -59.586151 149.40784 -19.099377 150.46622
17600000000 -14.823768 -28.824318 28.029724 -110.65144 -57.237808 127.60034 -19.877941 150.07204
17800000000 -13.90881 -73.582985 28.289768 -139.69461 -58.943184 92.848923 -19.157347 156.63396
18000000000 -11.977601 -113.31369 28.399107 -169.16722 -59.534492 53.578121 -17.645117 156.80286
18200000000 -9.9005299 -147.09662 28.395006 160.82614 -58.261604 21.16198 -16.165775 152.97908
18400000000 -8.1278038 -177.34746 28.309481 130.76236 -60.373215 -15.565329 -13.756837 144.24646
18600000000 -6.6924677 155.18391 28.084908 100.38017 -60.436207 -47.900795 -12.467548 129.84871
18800000000 -5.6835442 128.53796 27.707842 70.474312 -59.833035 -80.304214 -11.287567 116.27057
19000000000 -4.9551373 103.60011 27.311665 40.881859 -60.039776 -121.63882 -10.358027 99.40419
19200000000 -4.499186 78.97818 26.846661 11.356814 -60.243427 -144.7565 -9.9010506 81.024223
19400000000 -4.2536764 54.402008 26.337276 -17.454521 -58.440033 173.82516 -9.7283936 64.590027
19600000000 -4.2006116 29.843092 25.862619 -46.485802 -55.671482 146.74779 -9.5549364 45.290577
19800000000 -4.3101292 4.4960637 25.316231 -75.753059 -56.170971 126.71606 -9.9197426 24.657631
20000000000 -4.5734711 -21.901274 24.695562 -105.26894 -57.232059 98.37365 -10.304342 4.5067072
20200000000 -5.0091119 -48.844795 23.975086 -134.71626 -58.22525 62.134464 -10.668159 -18.492167
20400000000 -5.5372801 -76.638878 23.160404 -164.42509 -56.955597 29.092789 -11.440356 -44.123352
20600000000 -6.0791488 -104.70181 22.137077 166.0786 -56.643604 2.9759743 -12.159076 -70.670425
20800000000 -6.7812185 -132.29535 20.951984 137.2446 -58.088158 -19.977974 -12.183125 -97.82933
21000000000 -7.4634085 -158.49625 19.558531 109.18154 -57.571106 -56.027584 -12.300941 -128.82155
21200000000 -8.1289892 177.23672 17.906839 82.98967 -60.106979 -78.773888 -12.142075 -153.93494
21400000000 -8.6231966 157.35223 16.202219 60.594284 -60.433334 -95.00721 -11.196832 179.30946
21600000000 -8.5420551 141.09877 14.863069 41.440269 -66.508575 -104.83292 -10.481818 155.87012
21800000000 -7.7009649 124.73774 14.179718 23.37171 -58.713688 -121.35858 -9.6191149 134.58615
22000000000 -6.643836 106.08175 13.992548 2.8818386 -59.902054 -135.8317 -8.7294292 114.82645
22200000000 -5.6852846 85.018402 13.821421 -20.458652 -58.801941 -167.92561 -7.9735098 94.985115
22400000000 -5.0679603 63.80978 13.427798 -45.309029 -58.827938 174.54672 -7.5356135 76.956551
22600000000 -4.5984035 42.886021 12.918115 -69.733871 -57.450718 148.0163 -6.9658432 59.145554
22800000000 -4.38413 22.605215 12.372839 -94.293633 -58.077606 131.6028 -6.4776711 41.534679
23000000000 -4.2258592 2.5561209 11.723702 -118.75482 -59.2094 92.096642 -6.3419662 24.271
23200000000 -4.1696448 -17.107811 11.100575 -142.25673 -55.962036 73.8722 -6.0260625 7.973084
23400000000 -4.1394892 -36.559128 10.59522 -166.22318 -59.752232 60.446861 -5.798944 -10.884932
23600000000 -4.198956 -56.368504 9.9652052 169.98547 -57.653862 26.586916 -5.8804212 -27.181257
23800000000 -4.2944517 -76.18293 9.4130001 146.64293 -56.817066 23.04229 -5.6393747 -44.77977
24000000000 -4.4166794 -96.432838 8.9370461 122.58052 -59.122826 -9.2181263 -5.7498784 -63.731102
24200000000 -4.5646539 -116.69273 8.3769236 98.271378 -61.15683 -59.327694 -5.6924572 -81.920959
24400000000 -4.7955594 -137.36852 7.7871418 74.650543 -59.741089 -61.676315 -5.7345381 -101.15678
24600000000 -5.0069251 -158.56915 7.2302442 50.461918 -60.460552 -90.643723 -5.680933 -121.0009
24800000000 -5.2444968 179.67455 6.5679483 26.290401 -61.548237 -99.667816 -5.749517 -141.79608
25000000000 -5.5061073 157.58765 5.8301382 3.6146255 -58.462585 -123.06802 -5.7600584 -162.43925
25200000000 -5.753746 135.20729 5.244803 -18.655231 -57.068317 -145.10704 -5.7034888 175.01501
25400000000 -5.9420547 112.1354 4.707418 -40.813217 -59.608418 -166.07179 -5.9688931 152.54453
25600000000 -6.1453829 89.497337 4.4164777 -62.297482 -59.343086 166.28604 -6.0571423 130.94225
25800000000 -6.2542491 66.301018 4.3247747 -85.89859 -58.426361 158.43478 -6.1784325 107.32742
26000000000 -6.3810492 43.298019 3.9898601 -110.74618 -58.300941 133.81296 -6.5256062 86.530052
