!Keysight Technologies,N5244A,MY52442000,A.10.40.14
!Date: Tuesday, July 07, 2020 10:56:57
!Correction: S11(Full 2 Port(1,2)) 
!S21(Full 2 Port(1,2)) 
!S12(Full 2 Port(1,2)) 
!S22(Full 2 Port(1,2)) 
!S2P File: Measurements: S11, S21, S12, S22:
# Hz S  dB   R 50
10000000 -1.0387826 178.00674 -55.845749 169.25725 -61.95546 -170.73749 -26.5623 173.55145
20000000 -1.0996583 176.56775 -71.790207 -0.02037096 -67.05201 -125.98077 -26.538666 171.6288
30000000 -1.1258689 175.20514 -60.47221 -97.837479 -72.709648 -28.518724 -26.884426 171.82718
40000000 -1.1277814 173.70638 -62.985901 79.2575 -64.800255 -87.239456 -26.525415 169.96362
50000000 -1.1436398 172.35202 -71.534645 72.244865 -68.826721 145.82008 -26.638926 166.36664
60000000 -1.138628 170.98186 -62.83923 -165.43529 -63.234802 60.818951 -26.598082 164.24811
70000000 -1.146847 169.40927 -94.704384 77.059807 -64.250885 171.60773 -26.569748 161.36911
80000000 -1.163752 168.05997 -64.083618 9.4663477 -79.135872 167.89505 -26.569536 159.28192
90000000 -1.1597898 166.55971 -69.635216 -85.437271 -76.799957 1.5593396 -26.587307 157.23302
100000000 -1.1632688 165.11551 -67.915421 104.4809 -64.395172 54.23584 -26.51605 155.22742
500000000 -1.3047413 108.65397 -47.360863 53.540798 -68.492317 -167.98323 -23.520094 82.592102
1000000000 -1.3501469 39.923626 -26.712345 7.8498197 -82.192505 -156.82707 -19.46385 20.154551
1500000000 -1.4544039 -28.857378 -11.020717 -43.625038 -78.037079 -177.25235 -16.582233 -34.872437
2000000000 -2.6308026 -95.915421 1.1710993 -140.69069 -65.086082 -51.525013 -14.442468 -91.96138
2500000000 -3.2241724 -161.35825 6.903686 144.47765 -64.914314 -150.44653 -12.166723 -154.91679
3000000000 -4.1197371 127.79101 14.019194 70.908875 -66.644951 138.877 -9.773119 131.95303
3500000000 -5.4804535 53.80386 20.287691 -17.459715 -69.838715 53.396629 -7.9696474 49.837902
4000000000 -7.2874455 -17.691519 23.809721 -113.02926 -70.166527 -149.3644 -7.7821512 -29.081068
4200000000 -8.0161753 -43.946045 24.506927 -150.14331 -67.413445 161.4669 -7.9726391 -57.359539
4400000000 -8.6894608 -68.18998 24.937508 173.96788 -75.301979 154.72665 -8.1928511 -83.680794
4600000000 -9.2185078 -90.570892 25.135786 139.32188 -73.457191 53.960201 -8.4200258 -108.64185
4800000000 -9.5445967 -111.46419 25.194286 106.00936 -75.965538 -35.57856 -8.6350918 -132.53986
5000000000 -9.6692085 -131.27628 25.142788 74.055634 -72.465363 73.416222 -8.8728313 -155.25473
5200000000 -9.6048765 -150.71664 25.028587 43.268978 -91.566719 -111.58858 -9.1335649 -177.22665
5400000000 -9.4395161 -170.257 24.892046 13.587766 -78.452637 30.516781 -9.4029245 161.64185
5600000000 -9.2597494 169.99561 24.74781 -15.243176 -72.41909 -5.9958978 -9.7245541 140.99576
5800000000 -9.0889101 150.07913 24.623695 -43.280838 -68.565178 37.011623 -10.061178 120.91076
6000000000 -8.9750795 129.94576 24.527998 -70.718369 -66.214043 -56.644802 -10.457151 101.25471
6200000000 -8.9350853 109.70615 24.466852 -97.712234 -67.018181 -72.607758 -10.852848 81.754662
6400000000 -8.9725914 89.46505 24.435726 -124.35535 -65.577248 -76.800766 -11.28847 62.452759
6600000000 -9.091979 68.957382 24.445068 -150.756 -64.362312 -72.373573 -11.765364 43.164066
6800000000 -9.2963943 48.297291 24.471605 -177.00572 -65.144371 -108.56506 -12.252222 23.58235
7000000000 -9.6037474 27.334869 24.521662 156.81242 -62.463673 -143.44363 -12.763486 3.7962449
7200000000 -9.9877405 5.9406919 24.594591 130.71425 -63.835278 -174.99496 -13.248547 -16.557018
7400000000 -10.474084 -16.037691 24.671446 104.56551 -62.211338 168.18758 -13.750392 -37.31144
7600000000 -11.014141 -38.368656 24.747255 78.455376 -59.978966 141.57831 -14.241846 -58.817341
7800000000 -11.586036 -61.532082 24.827929 52.312366 -59.213089 120.05766 -14.63385 -80.918633
8000000000 -12.173699 -85.224419 24.882175 26.133316 -59.937981 102.55303 -14.917894 -103.58771
8200000000 -12.732896 -109.17339 24.93803 0.042917598 -60.238911 97.90834 -15.121674 -126.48222
8400000000 -13.211639 -133.27565 24.975651 -26.002123 -58.474049 44.488956 -15.146193 -149.45889
8600000000 -13.610108 -157.12143 24.997524 -51.996113 -58.160168 32.281319 -15.115522 -172.2128
8800000000 -13.890532 179.63388 25.012949 -77.88443 -58.147121 14.296187 -14.960197 165.80765
9000000000 -14.06167 157.26411 25.017427 -103.63087 -57.694397 -13.666069 -14.754647 144.47501
9200000000 -14.155667 136.16536 25.015015 -129.32404 -58.356956 -29.825682 -14.517681 124.0941
9400000000 -14.157842 116.36409 25.004755 -154.9176 -57.536469 -53.235535 -14.298403 104.41694
9600000000 -14.117116 97.952881 24.995428 179.56917 -57.786274 -78.686119 -14.135143 85.557655
9800000000 -14.026824 80.525352 24.984903 154.15369 -57.295223 -104.57265 -14.014523 67.495918
10000000000 -13.893023 64.329048 24.98012 128.84021 -57.520416 -126.06885 -14.007295 49.789597
10200000000 -13.705462 48.441715 24.978983 103.54276 -58.125378 -148.8775 -14.083207 32.443729
10400000000 -13.482674 32.971298 24.96995 78.325645 -57.222298 -162.00668 -14.231097 15.267472
10600000000 -13.235273 17.611294 24.973299 53.181305 -58.296085 161.10042 -14.518601 -1.4745584
10800000000 -12.947484 2.2124946 24.971924 28.047588 -56.883171 149.16063 -14.875041 -18.463982
11000000000 -12.691304 -13.116447 24.976923 2.9671595 -57.057205 128.05592 -15.376179 -34.707081
11200000000 -12.442351 -28.510736 24.981268 -22.101023 -58.675262 99.706413 -16.007647 -50.716927
11400000000 -12.215743 -44.256371 24.995592 -47.134743 -58.448242 71.211571 -16.809925 -66.168976
11600000000 -12.034953 -60.282227 25.006397 -72.128403 -58.005573 57.684013 -17.726717 -81.097527
11800000000 -11.87258 -76.803741 25.021732 -97.090721 -58.589069 24.918522 -18.830919 -94.630943
12000000000 -11.743506 -93.640541 25.045803 -122.08855 -57.739845 3.7224789 -20.04954 -107.53131
12200000000 -11.696969 -110.91141 25.072561 -147.0307 -58.200268 -7.5835891 -21.353539 -118.45155
12400000000 -11.672973 -128.69159 25.108912 -171.96696 -59.374962 -32.724659 -22.624481 -128.43007
12600000000 -11.712318 -146.77525 25.153625 163.06161 -59.366905 -38.783665 -23.66177 -136.30582
12800000000 -11.840031 -165.6263 25.200933 138.10216 -59.883423 -65.028038 -24.491381 -142.55496
13000000000 -12.007363 175.05205 25.264605 113.13457 -59.075657 -89.595802 -24.933399 -149.88617
13200000000 -12.239678 154.50064 25.329683 88.106438 -57.739815 -103.79964 -25.082653 -158.89529
13400000000 -12.520306 132.80826 25.410658 62.96278 -59.037476 -113.45985 -25.290968 -170.98936
13600000000 -12.847154 110.64821 25.474581 37.820808 -61.904507 -149.16446 -25.473974 175.74744
13800000000 -13.133327 86.81572 25.562675 12.52387 -59.991863 -167.73946 -25.978941 157.55043
14000000000 -13.453411 61.893768 25.62435 -12.925897 -60.629383 163.23621 -26.853144 138.43289
14200000000 -13.609521 36.257984 25.690004 -38.332008 -59.985535 151.33104 -27.786255 115.67226
14400000000 -13.528711 9.9620161 25.755285 -63.815887 -60.434021 126.19942 -28.706438 86.229881
14600000000 -13.297833 -16.842201 25.807816 -89.387733 -60.355988 105.5235 -29.225014 48.492584
14800000000 -12.919364 -43.075222 25.857645 -115.01608 -59.386429 86.477821 -28.335176 8.9154062
15000000000 -12.441435 -68.310791 25.893223 -140.64043 -57.938034 59.892426 -26.592567 -26.048601
15200000000 -11.957841 -92.788376 25.915854 -166.24934 -58.799328 46.359814 -24.704571 -54.772835
15400000000 -11.54477 -116.24268 25.938818 168.248 -59.161007 19.609125 -22.965994 -78.73275
15600000000 -11.190145 -138.63322 25.970989 142.82866 -58.129532 5.1987133 -21.629612 -99.158203
15800000000 -10.958755 -160.36897 26.02656 117.52036 -58.862675 -22.604824 -20.665037 -117.8702
16000000000 -10.877139 178.51071 26.104227 92.23671 -58.284832 -47.661846 -19.965466 -134.04301
16200000000 -10.955006 157.47971 26.227484 66.814568 -58.46587 -71.151932 -19.387712 -148.91734
16400000000 -11.157732 136.36497 26.390226 41.29348 -57.856537 -86.542915 -19.055878 -162.81544
16600000000 -11.587691 114.43113 26.599558 15.495771 -59.24754 -118.47862 -18.918808 -175.63048
16800000000 -12.258096 90.859894 26.843409 -10.707369 -58.505043 -146.37057 -19.036737 172.64084
17000000000 -13.157832 64.472374 27.115326 -37.387299 -58.754105 -169.53282 -19.252573 163.0177
17200000000 -14.264437 33.196922 27.405525 -64.710762 -60.558846 163.03793 -19.67914 155.55435
17400000000 -15.168321 -5.3517919 27.676432 -92.763039 -58.787346 132.36269 -20.233109 152.20325
17600000000 -15.043966 -50.278469 27.890074 -121.52838 -58.408035 103.4861 -20.425076 153.9653
17800000000 -13.605957 -94.362068 28.023212 -150.94852 -61.245052 62.781025 -19.556585 157.44501
18000000000 -11.458703 -131.9619 28.041796 179.16266 -59.76408 40.011505 -17.83453 156.67415
18200000000 -9.422369 -164.20171 27.929707 149.00069 -58.218685 2.2551501 -15.889093 150.5607
18400000000 -7.7807169 167.22179 27.68565 118.83423 -61.642124 0.1882097 -14.181389 139.48357
18600000000 -6.5620294 140.43594 27.329224 88.831322 -60.250374 -65.569359 -12.807446 126.34447
18800000000 -5.6978669 115.29659 26.875763 59.34145 -61.484337 -92.819336 -11.839272 111.11475
19000000000 -5.1221743 90.805946 26.383781 30.117872 -59.583984 -137.89919 -11.149127 94.035446
19200000000 -4.7837672 66.831322 25.866602 1.2665383 -60.127686 -170.14243 -10.750606 76.379898
19400000000 -4.66675 42.785561 25.319008 -27.430157 -58.055767 177.84752 -10.598389 58.125053
19600000000 -4.6969318 18.507257 24.770149 -56.11116 -58.387806 141.38464 -10.617456 38.891022
19800000000 -4.9153647 -6.6032457 24.156933 -85.020134 -58.275536 97.698738 -10.82642 18.65967
20000000000 -5.2536707 -32.507847 23.491701 -114.02465 -61.466099 94.305275 -11.182101 -2.6539476
20200000000 -5.7295704 -59.500912 22.719448 -143.07259 -58.26688 63.043274 -11.653175 -25.558096
20400000000 -6.2996316 -86.944061 21.827583 -172.08849 -58.980877 14.195242 -12.192645 -50.297253
20600000000 -6.9130006 -114.65759 20.783043 159.12852 -58.396885 -14.58235 -12.681177 -76.434196
20800000000 -7.5329733 -141.65869 19.548279 131.03929 -57.937092 -47.787998 -12.945159 -103.70207
21000000000 -8.1579123 -167.05466 18.118004 104.30737 -59.410225 -63.442478 -12.878392 -131.41095
21200000000 -8.6410561 170.86197 16.566595 79.977127 -61.30357 -80.196999 -12.394712 -158.5076
21400000000 -8.7428141 152.4476 15.15434 58.772522 -62.329708 -97.695595 -11.703651 176.87631
21600000000 -8.2078409 135.76593 14.226355 39.495304 -61.978027 -110.75792 -10.854082 153.82013
21800000000 -7.2865524 117.50803 13.773582 19.172255 -63.943295 -97.71563 -9.9743729 132.39076
22000000000 -6.3692317 97.45121 13.482945 -3.3640292 -60.864723 -157.15994 -9.1596088 112.29219
22200000000 -5.6327977 76.423759 13.106307 -27.339674 -61.461277 -177.48787 -8.4604874 92.986931
22400000000 -5.1487112 55.476265 12.61824 -51.836777 -61.055935 153.97771 -7.884037 74.76545
22600000000 -4.8324604 35.129314 12.04802 -76.204666 -59.880436 139.58434 -7.4039583 57.105797
22800000000 -4.6240225 15.058216 11.439761 -100.39469 -59.791821 114.50906 -7.0356498 39.790676
23000000000 -4.5150986 -4.7634678 10.822228 -124.34569 -60.309227 82.553833 -6.7410631 22.607836
23200000000 -4.4533281 -24.608118 10.212177 -148.0923 -60.281757 70.117996 -6.5352383 5.4786
23400000000 -4.4952044 -44.046982 9.6450748 -171.7123 -58.763542 44.016006 -6.4020295 -11.859983
23600000000 -4.5285468 -63.913967 9.0700941 164.64076 -59.410316 29.408247 -6.2774029 -29.442593
23800000000 -4.6243105 -83.774597 8.5353699 140.96341 -59.966282 -4.0581861 -6.2041192 -47.336273
24000000000 -4.764276 -104.31129 7.998702 117.10065 -58.448692 -27.183458 -6.2018833 -65.383011
24200000000 -4.923233 -124.90251 7.4474268 93.213501 -57.990311 -36.696365 -6.200305 -84.059654
24400000000 -5.1177926 -145.7803 6.858665 69.347916 -59.23914 -61.622536 -6.2137537 -103.44574
24600000000 -5.3425422 -167.0168 6.2408414 45.61758 -60.517902 -89.006264 -6.2316275 -123.7813
24800000000 -5.5836706 171.28661 5.5988927 22.370892 -60.75547 -124.28521 -6.3118815 -144.76672
25000000000 -5.8227677 149.06078 4.9717026 -0.21261299 -62.399895 -149.56868 -6.3611636 -166.3884
25200000000 -6.0592351 126.63242 4.4719687 -22.226778 -60.02462 -140.37663 -6.4897971 171.03046
25400000000 -6.2688832 104.13304 4.1427779 -44.390648 -61.890194 177.32083 -6.633234 148.47514
25600000000 -6.4513345 81.168983 3.9036269 -67.526352 -58.743847 161.37827 -6.7949276 125.97524
25800000000 -6.6175046 58.154179 3.6618795 -91.656631 -60.39373 136.98093 -6.9371548 103.93729
26000000000 -6.729279 35.037315 3.3466458 -116.39146 -58.984894 111.32937 -7.018342 81.925446
