!Keysight Technologies,N5244A,MY52442000,A.10.40.14
!Date: Thursday, July 16, 2020 10:52:51
!Correction: S11(Full 2 Port(1,2)) 
!S21(Full 2 Port(1,2)) 
!S12(Full 2 Port(1,2)) 
!S22(Full 2 Port(1,2)) 
!S2P File: Measurements: S11, S21, S12, S22:
# Hz S  dB   R 50
10000000 -0.76427138 177.47409 -69.320595 150.75015 -71.425903 55.737785 -25.741533 174.07034
20000000 -0.86722726 176.46576 -61.606586 -132.68242 -62.814789 -118.42851 -26.022234 174.81157
30000000 -0.88795853 175.1638 -78.37088 62.114498 -66.894981 74.011719 -26.095205 172.46005
40000000 -0.9145999 173.78435 -63.813622 82.977882 -78.898933 20.501207 -26.361128 169.63617
50000000 -0.91975099 172.40599 -61.055763 98.611809 -70.725327 179.40454 -26.465681 168.24255
60000000 -0.90584296 171.08127 -77.197983 -157.84749 -65.228035 110.83744 -26.481123 165.04768
70000000 -0.91806996 169.77774 -71.381638 120.71989 -72.168884 -40.557777 -26.5639 162.12027
80000000 -0.90867132 168.18942 -67.22966 40.569733 -84.121277 -108.46548 -26.486675 158.92189
90000000 -0.92559636 166.71811 -75.219086 117.67747 -79.796967 -174.53931 -26.275743 156.25089
100000000 -0.94282162 165.16591 -74.081841 97.324509 -77.610413 -89.052879 -26.426041 154.71231
500000000 -1.0594977 108.98856 -45.574924 59.102032 -79.236336 -9.0170507 -22.983561 82.810501
1000000000 -1.1290481 40.251972 -24.70785 10.034706 -70.69635 -9.4805107 -19.051601 21.298845
1500000000 -1.2259845 -28.371603 -9.0164566 -40.10857 -77.955917 -152.11053 -16.245762 -33.230034
2000000000 -2.566787 -95.001625 3.4425409 -141.41145 -65.106613 -22.585829 -14.138707 -90.272156
2500000000 -3.1040456 -159.79266 8.6693726 144.49002 -68.688416 -166.78175 -11.831445 -153.19498
3000000000 -4.029233 129.97017 15.685015 72.681725 -63.672924 116.94602 -9.2759132 135.18343
3500000000 -5.4785004 56.658855 22.076685 -14.209716 -68.36734 26.965809 -7.4062982 53.174084
4000000000 -7.4260755 -15.295891 25.768677 -109.75792 -71.574493 -71.702477 -7.125495 -27.666243
4200000000 -8.2657795 -41.823418 26.496431 -146.97792 -73.048164 145.75064 -7.2955499 -56.394653
4400000000 -8.9989386 -66.402725 26.938736 177.11021 -68.244621 -109.96574 -7.5095167 -83.50074
4600000000 -9.6840248 -88.671066 27.142809 142.26016 -69.609932 -71.516457 -7.7735529 -108.97038
4800000000 -10.128162 -109.29601 27.165745 108.87458 -73.736786 32.53994 -8.0887461 -132.78154
5000000000 -10.296053 -128.46776 27.127184 77.003242 -75.737488 63.265934 -8.2611303 -156.03328
5200000000 -10.223918 -147.1638 26.975239 46.144798 -72.525864 57.361206 -8.6115599 -178.34041
5400000000 -10.012759 -166.1228 26.824097 16.62002 -71.290077 52.623432 -8.8257809 161.16678
5600000000 -9.7335167 174.8315 26.663614 -12.079125 -75.007332 21.48683 -9.1690807 140.17938
5800000000 -9.4864349 155.40619 26.51993 -40.052322 -71.591194 -38.725124 -9.5538816 120.36111
6000000000 -9.2962618 135.9482 26.381578 -67.159035 -73.638 -7.6828189 -10.041347 100.52481
6200000000 -9.1909809 116.16415 26.342644 -93.990585 -69.472412 -45.803459 -10.429219 81.347031
6400000000 -9.1550121 96.444046 26.295969 -120.39754 -62.548088 -47.520618 -10.966657 61.377876
6600000000 -9.2349777 76.227425 26.302584 -146.41 -64.865059 -75.8097 -11.579611 42.117851
6800000000 -9.4165163 55.733078 26.327732 -172.42464 -67.355888 -132.79362 -11.98874 21.97051
7000000000 -9.6797361 35.169952 26.411383 161.6833 -64.113098 -143.72562 -12.649238 1.3295026
7200000000 -10.026698 13.842278 26.473331 135.75539 -63.728107 -152.26468 -13.13412 -18.289787
7400000000 -10.485388 -7.8208008 26.583981 110.01205 -65.388306 168.49516 -13.55215 -39.992302
7600000000 -10.971863 -29.930347 26.697655 84.076813 -60.614227 154.40224 -14.109529 -62.020092
7800000000 -11.543205 -52.668205 26.777393 58.156048 -60.119556 132.23247 -14.489027 -83.624695
8000000000 -12.171186 -75.868401 26.9069 32.366631 -60.002144 106.57706 -14.60953 -106.2681
8200000000 -12.799917 -99.938797 26.981237 6.1574936 -62.521145 89.481308 -14.917334 -130.24254
8400000000 -13.32484 -124.03474 27.045095 -19.567587 -57.713943 60.983112 -14.959169 -151.27625
8600000000 -13.833454 -148.50729 27.129173 -45.545254 -57.418751 35.682587 -14.734689 -174.67152
8800000000 -14.184772 -171.41888 27.18412 -71.391273 -58.82885 18.03627 -14.671691 163.32416
9000000000 -14.446974 165.31581 27.200563 -97.13768 -60.897343 -12.439385 -14.549671 142.11842
9200000000 -14.665838 143.7851 27.252628 -122.81097 -58.250389 -24.581154 -14.217664 122.15811
9400000000 -14.699791 122.96798 27.269251 -148.48779 -58.898598 -49.214527 -14.048443 101.26877
9600000000 -14.672771 104.10294 27.271431 -174.03181 -57.868382 -71.972115 -13.897317 83.254745
9800000000 -14.519308 85.867332 27.28747 160.66078 -59.407948 -104.13966 -13.609614 65.029152
10000000000 -14.340666 70.169533 27.309216 134.98897 -58.622871 -97.55442 -13.631399 46.610863
10200000000 -14.0381 54.283379 27.296579 109.79488 -57.229393 -143.90575 -13.720468 29.787035
10400000000 -13.670958 39.413563 27.323111 84.66774 -56.344406 -167.96591 -13.794461 12.79409
10600000000 -13.300208 24.295824 27.34948 59.310379 -56.67131 168.75169 -13.976674 -5.7288723
10800000000 -12.893122 9.6120195 27.351084 34.06675 -57.630554 141.60165 -14.536109 -21.072798
11000000000 -12.474983 -5.6411653 27.382027 8.9937906 -58.566383 131.39922 -14.64464 -38.507595
11200000000 -12.144089 -20.758377 27.393318 -16.229139 -57.444565 105.90339 -15.680971 -55.412849
11400000000 -11.785556 -36.413822 27.392693 -41.459831 -57.126179 90.599464 -16.50703 -70.605591
11600000000 -11.514467 -52.369617 27.396725 -66.391632 -57.958744 67.678932 -17.550961 -87.137291
11800000000 -11.229749 -68.751068 27.433094 -91.481308 -58.575874 29.665073 -19.126066 -100.91833
12000000000 -11.076242 -85.631371 27.417376 -116.53457 -57.271927 12.644249 -20.994057 -112.43738
12200000000 -10.946286 -102.52171 27.44935 -141.26839 -58.043228 -10.955291 -22.841812 -125.26362
12400000000 -10.946876 -120.48402 27.502806 -166.41922 -59.795517 -12.90078 -25.188652 -129.49101
12600000000 -10.903125 -138.34969 27.517138 168.65663 -58.619816 -42.906021 -27.397093 -126.82764
12800000000 -11.064595 -157.57104 27.585381 143.87709 -58.368233 -62.63541 -28.210033 -128.50749
13000000000 -11.170931 -177.06909 27.658644 118.73836 -58.377071 -98.218185 -28.459375 -116.5557
13200000000 -11.355355 161.67667 27.691473 93.67083 -57.576202 -108.01157 -26.129566 -127.64097
13400000000 -11.577267 140.38849 27.780785 68.710159 -58.331554 -122.10825 -26.291437 -137.60739
13600000000 -11.780373 117.89626 27.861206 43.420883 -61.122128 -151.03026 -25.111534 -146.65175
13800000000 -12.048658 94.021141 27.906652 18.051767 -61.247353 -167.62265 -25.272137 -167.96536
14000000000 -12.161321 69.106499 27.981606 -7.2295699 -65.369423 169.4771 -26.214481 176.18715
14200000000 -12.351528 44.655468 28.060951 -32.802658 -58.157326 145.5065 -26.545641 160.21375
14400000000 -12.213094 18.664364 28.081131 -58.236809 -58.833714 139.90224 -28.197498 135.22536
14600000000 -12.108588 -7.5437927 28.139091 -83.615631 -58.081333 136.73734 -30.892172 95.178658
14800000000 -11.760825 -33.058083 28.19796 -109.4473 -60.460644 83.721138 -33.926155 58.029751
15000000000 -11.369064 -58.825489 28.202559 -135.08237 -59.568764 69.142593 -30.414928 -3.4711556
15200000000 -10.992512 -83.035492 28.206039 -160.5211 -58.234207 51.252689 -27.136032 -47.961609
15400000000 -10.535254 -106.35796 28.228893 173.79027 -58.908962 31.152327 -25.438583 -71.96862
15600000000 -10.250036 -128.81239 28.225475 148.36742 -58.833324 14.057788 -22.392727 -89.165863
15800000000 -10.090028 -151.05049 28.233574 123.31062 -57.442005 -11.711338 -21.534405 -114.0496
16000000000 -10.019316 -172.15091 28.287582 98.074577 -56.919514 -43.233177 -20.409214 -127.81561
16200000000 -10.039515 166.71501 28.346941 72.706947 -59.444225 -47.158947 -19.299911 -140.92996
16400000000 -10.231473 146.05231 28.475374 47.789299 -58.350178 -84.909737 -18.910225 -154.92705
16600000000 -10.530172 125.18469 28.700035 22.380564 -58.611897 -105.54907 -18.432354 -165.81145
16800000000 -10.988851 103.51395 28.898108 -3.5873563 -60.87999 -125.5545 -17.691742 -176.40231
17000000000 -11.785329 79.174309 29.173754 -29.704012 -57.056328 -146.33543 -17.699415 171.53181
17200000000 -12.705261 52.134155 29.501619 -56.464386 -61.168491 178.30975 -17.70351 165.56801
17400000000 -13.726875 18.019268 29.775833 -84.16655 -58.770584 149.30421 -17.563286 155.68718
17600000000 -14.312411 -21.618853 30.01207 -112.31837 -57.379436 128.63931 -17.923098 151.18007
17800000000 -13.842746 -66.774269 30.242111 -141.2907 -57.706276 105.66158 -17.337067 151.81415
18000000000 -12.160652 -108.5961 30.319069 -170.69962 -63.10722 59.344292 -16.364454 148.52309
18200000000 -10.11179 -144.15158 30.281988 159.37808 -62.342403 43.812157 -15.49649 143.32512
18400000000 -8.3061142 -175.76749 30.165869 129.41522 -58.248852 12.770166 -13.49338 136.03737
18600000000 -6.8234792 156.14684 29.906586 99.18222 -63.640717 -47.620747 -12.412185 122.48347
18800000000 -5.7775683 129.07385 29.495811 69.456421 -63.623856 -16.638506 -11.374997 110.13115
19000000000 -5.0117216 103.76048 29.066101 40.079815 -65.907059 -113.91268 -10.520852 94.305954
19200000000 -4.5228767 78.997604 28.572468 10.790004 -65.179871 -132.82851 -10.09196 76.619057
19400000000 -4.2591014 54.260208 28.04615 -17.755978 -61.912743 -168.37874 -9.9536171 60.741096
19600000000 -4.1783824 29.586718 27.560411 -46.540474 -62.827705 135.96088 -9.8184032 42.105911
19800000000 -4.2481241 4.0908484 27.013117 -75.548401 -62.905704 120.56741 -10.180862 21.947901
20000000000 -4.484508 -22.472361 26.39992 -104.82716 -61.139561 100.22599 -10.596731 2.0056527
20200000000 -4.872097 -49.698761 25.693731 -134.09273 -59.154293 68.42028 -10.961849 -20.744967
20400000000 -5.3632002 -77.910904 24.893337 -163.67094 -58.675713 25.39138 -11.755016 -46.623085
20600000000 -5.8667984 -106.34243 23.893827 166.90617 -59.31995 -3.5327654 -12.474127 -73.598816
20800000000 -6.5389795 -134.64122 22.727201 138.07552 -60.301182 -36.533604 -12.450357 -100.88266
21000000000 -7.2233019 -161.62444 21.353868 109.93095 -60.35751 -52.38522 -12.503881 -132.40756
21200000000 -7.9322209 173.32225 19.706562 83.552643 -59.438225 -71.95787 -12.275135 -157.61472
21400000000 -8.5785789 152.89285 17.98167 60.932133 -64.032883 -89.250061 -11.247814 176.00739
21600000000 -8.6933718 137.14697 16.592199 41.709835 -65.082611 -136.89082 -10.481652 152.92371
21800000000 -7.9250159 122.21922 15.860275 23.870159 -63.335022 -140.61659 -9.6199741 131.96909
22000000000 -6.8018079 104.61274 15.665307 3.6826153 -65.321991 -170.58382 -8.7214165 112.53782
22200000000 -5.7440023 83.926003 15.50418 -19.477886 -61.942055 -166.55588 -7.9606333 92.967384
22400000000 -5.0287552 62.770409 15.114923 -44.219406 -63.713799 166.25179 -7.5290775 75.168015
22600000000 -4.5166345 41.815922 14.606021 -68.553947 -61.116928 146.21352 -6.9462738 57.503109
22800000000 -4.2697449 21.456617 14.065045 -93.022202 -58.922142 130.08281 -6.4819484 39.92424
23000000000 -4.0880685 1.2579683 13.418324 -117.39857 -58.77383 84.015938 -6.3466778 22.64612
23200000000 -4.0199151 -18.554625 12.796084 -140.82002 -60.177731 58.902966 -6.040545 6.3110824
23400000000 -3.9685373 -38.121391 12.295091 -164.72096 -60.281452 44.390926 -5.8035312 -12.576703
23600000000 -4.0237966 -58.070446 11.673298 171.55597 -58.538071 31.561628 -5.8738961 -29.058651
23800000000 -4.101871 -78.130554 11.126285 148.24493 -59.201641 9.182518 -5.6455116 -46.795223
24000000000 -4.2082224 -98.591614 10.64975 124.23219 -57.612843 -33.185387 -5.732039 -65.803795
24200000000 -4.3318686 -119.05404 10.090661 99.970413 -58.976967 -29.455444 -5.6637831 -83.958084
24400000000 -4.5438457 -139.86884 9.5025978 76.42762 -60.491138 -54.725204 -5.691432 -103.10931
24600000000 -4.74014 -161.2179 8.9469538 52.303696 -58.848938 -73.214539 -5.6359038 -122.91905
24800000000 -4.9580002 176.88867 8.2857819 28.16078 -58.819557 -114.66998 -5.6916485 -143.56525
25000000000 -5.1946917 154.70175 7.5424981 5.5115829 -61.848789 -123.11021 -5.6869292 -164.10406
25200000000 -5.4283481 132.22528 6.9533744 -16.708881 -58.713779 -144.32207 -5.6152635 173.57179
25400000000 -5.5970025 109.18047 6.4049311 -38.732529 -63.75391 176.94196 -5.8889503 151.15759
25600000000 -5.8033829 86.477829 6.1151032 -60.066891 -59.870007 176.82974 -5.9790807 129.56029
25800000000 -5.9207544 63.250393 6.038022 -83.496269 -60.272266 163.53352 -6.1165409 105.80747
26000000000 -6.0463767 40.123142 5.7214055 -108.24913 -58.761181 107.65305 -6.4734006 84.87735
