!Keysight Technologies,N5244A,MY52442000,A.10.40.14
!Date: Thursday, July 16, 2020 10:47:36
!Correction: S11(Full 2 Port(1,2)) 
!S21(Full 2 Port(1,2)) 
!S12(Full 2 Port(1,2)) 
!S22(Full 2 Port(1,2)) 
!S2P File: Measurements: S11, S21, S12, S22:
# Hz S  dB   R 50
10000000 -1.0109063 177.64294 -67.870201 30.301126 -62.393101 -103.89748 -25.805012 174.55058
20000000 -1.082388 176.52174 -65.823601 -26.955502 -69.694328 126.64709 -26.292013 174.67474
30000000 -1.1046093 175.17683 -75.945816 87.463493 -64.158051 -23.730869 -26.179491 171.69899
40000000 -1.1397426 173.71759 -62.97065 9.5279016 -69.253487 120.64632 -26.48304 168.6982
50000000 -1.134562 172.28262 -75.127113 137.21928 -67.924232 75.698212 -26.623957 167.69211
60000000 -1.1313967 171.00186 -65.882263 -32.757229 -63.765949 11.907641 -26.630896 164.10725
70000000 -1.1361206 169.61044 -74.086594 -48.150711 -68.362785 36.326427 -26.580202 161.21954
80000000 -1.1281949 168.06125 -58.033722 49.118015 -81.398003 177.33955 -26.553989 157.85292
90000000 -1.1400518 166.63028 -68.977615 33.624889 -70.102821 -81.409554 -26.24029 155.74704
100000000 -1.153177 165.04332 -66.368599 94.233711 -73.394249 108.18301 -26.406315 153.66788
500000000 -1.2866846 108.80159 -47.439663 53.971962 -65.335823 41.27021 -23.030844 81.723579
1000000000 -1.3314568 40.169769 -26.451078 8.0254011 -81.994156 -69.923836 -19.115877 20.761509
1500000000 -1.4374514 -28.464327 -10.78344 -43.437119 -82.820923 5.5413818 -16.32044 -34.097275
2000000000 -2.618021 -95.173286 1.3966199 -140.26793 -64.163879 -34.671257 -14.228719 -91.285133
2500000000 -3.2062192 -160.62395 7.1431274 145.05687 -65.462883 -158.81837 -11.982632 -154.54956
3000000000 -4.1072326 128.63548 14.243595 71.575356 -64.698654 124.79902 -9.5487404 132.71448
3500000000 -5.4817486 54.819248 20.510805 -16.619759 -67.213501 9.4539404 -7.7952523 50.663422
4000000000 -7.2639441 -16.748861 24.043108 -112.1199 -65.547897 -147.55144 -7.5545406 -28.477633
4200000000 -8.008317 -42.880054 24.746309 -149.15256 -71.608902 150.69446 -7.7165418 -56.193249
4400000000 -8.6279888 -67.082611 25.178816 175.08128 -65.031288 -128.03293 -7.8946285 -82.780243
4600000000 -9.2185888 -89.316628 25.381895 140.36052 -69.129562 69.413231 -8.1382198 -107.55624
4800000000 -9.5247278 -109.9291 25.416203 107.09029 -65.910492 62.855343 -8.4187794 -131.0618
5000000000 -9.6703987 -129.89276 25.394026 75.258156 -69.907303 97.375618 -8.5758915 -153.89716
5200000000 -9.5834846 -149.21767 25.25913 44.3881 -66.499802 71.669479 -8.9421558 -175.98109
5400000000 -9.4163952 -168.97391 25.127272 14.85031 -79.884003 36.588768 -9.1315041 163.58632
5600000000 -9.2247019 171.59067 24.990488 -13.92101 -67.287315 -43.60807 -9.4869509 142.74959
5800000000 -9.05902 151.66199 24.868565 -42.025696 -73.413223 -38.878368 -9.8390789 122.7497
6000000000 -8.9452477 131.91248 24.746893 -69.286247 -79.583351 -21.922983 -10.315588 103.08965
6200000000 -8.9080553 111.78762 24.72049 -96.307556 -72.959686 -49.854355 -10.683304 83.753815
6400000000 -8.9719734 91.629433 24.683838 -122.9555 -65.83654 -92.403343 -11.170764 63.799343
6600000000 -9.0771284 70.964371 24.688133 -149.20158 -62.001957 -95.132927 -11.729026 44.523384
6800000000 -9.3144903 50.17131 24.712902 -175.47406 -69.676071 -108.39303 -12.08706 24.723879
7000000000 -9.5910816 29.21109 24.779894 158.38925 -62.441319 -138.3287 -12.691169 3.8993781
7200000000 -9.9655361 7.7342448 24.827267 132.23717 -62.740395 -151.32655 -13.128825 -15.429502
7400000000 -10.428674 -13.992815 24.91444 106.26624 -58.863316 -176.05951 -13.505033 -36.859009
7600000000 -10.967799 -36.262283 25.004852 80.132393 -63.544994 144.86392 -13.971646 -58.670841
7800000000 -11.567204 -59.078533 25.058334 54.032215 -59.894672 130.3667 -14.39817 -79.901329
8000000000 -12.154612 -82.580185 25.156263 28.053284 -58.370869 108.79631 -14.492551 -102.55804
8200000000 -12.758776 -106.53087 25.19858 1.7151885 -58.272808 72.515701 -14.797861 -126.58879
8400000000 -13.223444 -130.44269 25.224747 -24.116167 -59.052128 50.897373 -14.833558 -147.7215
8600000000 -13.655773 -154.59111 25.271479 -50.155697 -57.320042 29.13559 -14.59134 -170.47057
8800000000 -13.91407 -177.39821 25.287701 -76.022346 -56.655434 17.995346 -14.605214 167.66473
9000000000 -14.115932 159.96297 25.26862 -101.77043 -59.652584 -14.462235 -14.459714 146.5791
9200000000 -14.249363 138.90277 25.2808 -127.42726 -58.555355 -36.870422 -14.151461 126.82437
9400000000 -14.227118 118.81248 25.264545 -153.03734 -59.404984 -59.139584 -14.029876 106.23286
9600000000 -14.171616 100.52705 25.23789 -178.47836 -59.200115 -85.196487 -13.889753 87.993805
9800000000 -14.075842 82.858429 25.230783 156.32732 -58.288391 -86.558899 -13.600129 69.973763
10000000000 -13.913918 66.939758 25.232855 130.74843 -59.418903 -125.59766 -13.702567 51.816296
10200000000 -13.694802 50.991302 25.202097 105.65474 -57.951698 -156.97937 -13.835004 35.115818
10400000000 -13.455359 35.919769 25.208973 80.651199 -57.186291 -169.47006 -13.911955 18.478546
10600000000 -13.168346 20.812468 25.221434 55.438339 -56.399464 178.1994 -14.206098 0.55261129
10800000000 -12.931629 5.8370976 25.212666 30.315338 -57.905663 147.78096 -14.759907 -14.470591
11000000000 -12.650056 -9.6381645 25.237421 5.3749785 -57.584652 129.54286 -14.922739 -31.280849
11200000000 -12.434669 -24.740519 25.247103 -19.727295 -57.1688 103.01413 -15.952474 -48.02235
11400000000 -12.199174 -40.53019 25.246605 -44.821293 -57.767605 90.049683 -16.613119 -61.876801
11600000000 -12.044449 -56.347385 25.249067 -69.641945 -58.23777 61.858601 -17.634718 -78.055283
11800000000 -11.881629 -72.402222 25.296276 -94.616547 -58.1105 34.50589 -18.994308 -90.352562
12000000000 -11.841172 -89.605743 25.283413 -119.62411 -57.017933 18.060022 -20.259773 -102.76025
12200000000 -11.768521 -106.53108 25.323271 -144.29718 -59.669281 -3.1497195 -21.514883 -114.12469
12400000000 -11.803227 -124.83641 25.381037 -169.40588 -59.165684 -15.998574 -23.197721 -123.31594
12600000000 -11.820745 -142.70279 25.400902 165.69014 -59.917023 -40.31461 -24.3932 -129.6776
12800000000 -11.980929 -162.11981 25.469543 140.93555 -60.6362 -73.077667 -25.258043 -142.51826
13000000000 -12.11715 178.63484 25.545654 115.80941 -58.950386 -93.665421 -26.443012 -146.57097
13200000000 -12.302633 157.45857 25.581011 90.777657 -58.899689 -109.22137 -25.416945 -158.75975
13400000000 -12.614893 136.22113 25.672712 65.835236 -57.994778 -138.49992 -25.927961 -175.38954
13600000000 -12.789804 113.4939 25.754547 40.557697 -58.989227 -156.97858 -25.785709 175.63405
13800000000 -13.144855 89.7649 25.799623 15.199921 -60.470989 -179.4288 -25.626427 153.26871
14000000000 -13.261992 64.833618 25.872143 -10.025765 -60.312115 179.47145 -26.750578 133.03468
14200000000 -13.45966 39.89463 25.95933 -35.564671 -62.094322 145.27678 -27.543484 116.76994
14400000000 -13.296516 13.917473 25.982035 -60.956161 -60.820332 142.28885 -28.229488 84.779167
14600000000 -13.161989 -12.586237 26.044374 -86.297394 -59.16338 117.23696 -28.07313 48.274578
14800000000 -12.805787 -37.743778 26.113043 -112.06377 -57.423725 92.387329 -29.152124 10.391978
15000000000 -12.380975 -64.095291 26.132486 -137.65363 -59.094505 64.141853 -25.894075 -22.037651
15200000000 -11.94698 -87.759979 26.154243 -163.00932 -59.929279 55.098255 -24.016109 -55.16856
15400000000 -11.47597 -111.10911 26.196934 171.33662 -58.803894 38.179695 -23.165689 -77.825256
15600000000 -11.138801 -133.47984 26.225315 145.88206 -58.174141 2.0840206 -20.893026 -96.499275
15800000000 -10.966542 -155.54318 26.263708 120.80665 -58.164101 -14.49531 -20.099991 -119.64975
16000000000 -10.903935 -176.43623 26.356512 95.488167 -58.59145 -45.134743 -19.368822 -133.54115
16200000000 -10.955186 162.34198 26.448399 69.939293 -59.374874 -57.338543 -18.507078 -147.74228
16400000000 -11.238313 141.25082 26.61272 44.746593 -59.665115 -87.251854 -18.208551 -161.77249
16600000000 -11.674081 119.49743 26.865025 18.993816 -59.593403 -118.17756 -18.152414 -172.60107
16800000000 -12.309297 96.47245 27.073311 -7.3468266 -59.070122 -129.05841 -17.752851 177.37245
17000000000 -13.314428 69.433182 27.358973 -33.933437 -58.606884 -160.74451 -18.164661 166.57637
17200000000 -14.392145 38.2383 27.678928 -61.201958 -57.143005 170.08681 -18.608776 162.44812
17400000000 -15.209998 -1.4079236 27.922731 -89.425972 -59.123516 133.82748 -18.882212 156.33189
17600000000 -15.023079 -46.416138 28.108244 -118.10194 -57.707207 103.29457 -19.326897 157.07938
17800000000 -13.410555 -90.19223 28.267797 -147.56665 -56.545044 81.362869 -18.272747 162.79514
18000000000 -11.253105 -127.12934 28.261333 -177.31747 -61.481743 58.574215 -16.755037 159.69084
18200000000 -9.2813931 -158.62239 28.125072 152.56581 -58.357513 11.314014 -15.361685 154.44168
18400000000 -7.7151785 172.55815 27.904499 122.58868 -63.329987 -15.137214 -13.378159 144.20818
18600000000 -6.5128636 146.09933 27.556406 92.475273 -57.084167 -60.402855 -12.319944 128.98764
18800000000 -5.6702909 120.56458 27.069807 63.047474 -61.3535 -96.203804 -11.441806 114.98371
19000000000 -5.1106024 96.364571 26.59486 33.943054 -61.718887 -108.06495 -10.65265 98.168381
19200000000 -4.784833 72.344788 26.059963 4.8984179 -59.977547 -147.56694 -10.351071 79.414291
19400000000 -4.6449413 48.278782 25.496923 -23.41433 -60.286224 164.58418 -10.299423 63.182781
19600000000 -4.6906114 24.192036 24.972994 -52.010284 -60.564629 142.76231 -10.21331 43.623962
19800000000 -4.8910494 -1.0358597 24.370802 -80.868439 -57.630264 119.55527 -10.586369 22.95369
20000000000 -5.2259364 -26.995617 23.694715 -109.82358 -59.155941 82.24472 -11.049558 2.8426931
20200000000 -5.7019382 -53.817848 22.923643 -138.71022 -58.468498 25.299036 -11.396751 -20.141689
20400000000 -6.2618108 -81.1707 22.059673 -167.78664 -56.76572 11.89423 -12.13072 -46.013901
20600000000 -6.823667 -108.50937 20.994955 163.46736 -57.336777 -6.6333065 -12.78951 -71.976715
20800000000 -7.5320578 -135.31152 19.766233 135.56702 -57.877449 -31.747007 -12.733856 -99.099899
21000000000 -8.1817865 -160.05431 18.364237 108.8485 -60.779884 -66.884926 -12.733487 -129.25131
21200000000 -8.6892576 177.58006 16.804882 84.397629 -60.96785 -85.750229 -12.539877 -154.08333
21400000000 -8.8280392 159.16219 15.39966 63.483932 -62.94873 -101.49902 -11.542436 179.7218
21600000000 -8.3107891 141.83049 14.495325 43.914871 -65.818954 -144.05495 -10.750393 155.62564
21800000000 -7.312686 123.29115 14.019524 23.511265 -62.043549 -151.11934 -9.8548565 134.94862
22000000000 -6.4012079 103.15615 13.72965 1.0572432 -59.241474 -147.21959 -8.9606714 114.72916
22200000000 -5.6264634 81.969009 13.369238 -22.987017 -58.743618 -170.02478 -8.1808376 94.98687
22400000000 -5.1270432 61.206482 12.824439 -47.721325 -60.099396 159.03839 -7.6782188 76.735115
22600000000 -4.7478309 40.745804 12.223143 -71.770142 -59.157669 135.05002 -7.0532656 59.740337
22800000000 -4.5678225 20.917414 11.6368 -95.915268 -60.324303 115.7524 -6.564517 42.428288
23000000000 -4.4288111 1.2980378 10.961569 -119.99491 -59.826748 85.324409 -6.4307666 25.617798
23200000000 -4.396338 -18.050743 10.336748 -143.11908 -60.238445 63.56284 -6.0867295 9.7028198
23400000000 -4.3794136 -37.377041 9.8283777 -166.84195 -60.578629 56.673237 -5.8842506 -8.6895084
23600000000 -4.4312778 -56.933121 9.200388 169.65231 -62.090866 30.701834 -5.961206 -24.571936
23800000000 -4.5295882 -76.360512 8.6609106 146.55959 -58.965019 17.170315 -5.784049 -41.899361
24000000000 -4.69347 -96.227806 8.1946888 122.70554 -59.604172 -16.5755 -5.9141269 -60.696301
24200000000 -4.8786898 -116.60406 7.6427126 98.534897 -61.684498 -37.705307 -5.9116669 -79.0028
24400000000 -5.1374879 -137.38271 7.0485969 75.167786 -59.475945 -58.756294 -5.9841471 -98.475616
24600000000 -5.3680978 -158.66742 6.4983277 51.319168 -58.386414 -90.258278 -6.0011463 -118.88407
24800000000 -5.6486106 179.47414 5.8579807 27.65925 -58.235672 -111.52234 -6.0756602 -140.04565
25000000000 -5.9294915 156.82082 5.2077184 5.5243983 -62.289177 -122.25413 -6.216979 -161.323
25200000000 -6.1791573 134.21405 4.7684708 -16.637915 -59.611095 -149.9796 -6.1779947 175.23151
25400000000 -6.3512325 110.80045 4.3729482 -39.39196 -57.995602 -165.66174 -6.490191 152.6917
25600000000 -6.5305009 87.921242 4.1093636 -61.917156 -59.401485 176.68732 -6.5240564 131.29343
25800000000 -6.6130629 64.685196 3.9538219 -86.168724 -59.127392 157.77913 -6.6231866 108.07314
26000000000 -6.7094903 41.435013 3.5425565 -111.23429 -59.716698 111.66036 -6.9112582 87.495735
