!Keysight Technologies,N5244A,MY52442000,A.10.40.14
!Date: Thursday, July 16, 2020 11:13:35
!Correction: S11(Full 2 Port(1,2)) 
!S21(Full 2 Port(1,2)) 
!S12(Full 2 Port(1,2)) 
!S22(Full 2 Port(1,2)) 
!S2P File: Measurements: S11, S21, S12, S22:
# Hz S  dB   R 50
10000000 -1.123112 177.36488 -59.303699 169.79163 -60.027958 129.09805 -26.316936 173.67343
20000000 -1.2236441 176.40538 -55.476658 108.68338 -64.205475 83.152687 -26.008577 172.86981
30000000 -1.2388041 175.06876 -69.563683 -3.2700081 -66.86496 23.782204 -26.319654 171.89871
40000000 -1.2636226 173.6908 -62.657951 60.409431 -73.45977 -39.488075 -26.579411 168.88429
50000000 -1.2719938 172.27612 -62.797489 124.10763 -66.984764 -39.54591 -26.556387 167.0567
60000000 -1.2586954 170.94371 -69.052452 133.74202 -65.331299 -36.652012 -26.68622 163.67795
70000000 -1.2607632 169.59053 -84.807518 85.922554 -69.555138 143.36409 -26.625423 160.79707
80000000 -1.2591416 168.02295 -69.506744 75.49334 -70.15258 -24.338615 -26.606518 157.65163
90000000 -1.2769043 166.54686 -71.929153 -26.647371 -77.778412 46.915745 -26.381123 155.3455
100000000 -1.2943828 164.96692 -67.849411 161.97478 -66.966881 89.083939 -26.343828 152.79549
500000000 -1.4311178 108.66211 -48.648445 51.276535 -78.330696 -119.47401 -22.971666 81.240242
1000000000 -1.4572242 39.934662 -26.854153 5.9226475 -75.64698 -8.4009552 -19.021269 20.299463
1500000000 -1.5695164 -28.82136 -11.139738 -45.79792 -76.274139 120.58068 -16.231539 -34.968071
2000000000 -2.6900046 -95.570511 0.89520472 -141.14273 -69.412949 -62.605507 -14.12648 -92.418236
2500000000 -3.3001533 -161.36984 6.8299079 144.07069 -63.923279 -156.87918 -11.939427 -156.02866
3000000000 -4.206296 127.53962 13.952382 69.879074 -60.985657 121.64451 -9.5519829 130.71138
3500000000 -5.5559697 53.443195 20.15313 -18.886198 -63.003368 21.088305 -7.8886919 48.472687
4000000000 -7.2773986 -17.865929 23.625153 -114.3662 -82.743362 64.583504 -7.6700768 -30.016891
4200000000 -7.9653645 -43.83337 24.313162 -151.30965 -86.69001 135.0593 -7.8162251 -57.368488
4400000000 -8.5694199 -67.805725 24.749823 173.0157 -71.614487 171.3183 -7.9688206 -83.58213
4600000000 -9.0975676 -90.0541 24.953192 138.28036 -77.488129 3.3361347 -8.2195158 -108.34074
4800000000 -9.3922729 -110.84421 24.985407 105.01888 -70.084595 118.04597 -8.4960003 -131.53435
5000000000 -9.4870138 -130.75713 24.980116 73.215141 -68.551422 40.575893 -8.6148033 -154.3912
5200000000 -9.4245872 -150.52403 24.851324 42.271877 -68.391258 49.00024 -9.0251131 -176.5555
5400000000 -9.2510014 -170.42004 24.726097 12.71133 -69.899422 -13.86206 -9.1821375 163.28081
5600000000 -9.0907106 169.91891 24.601545 -16.123518 -73.371742 115.03887 -9.5330572 142.19061
5800000000 -8.961154 149.74117 24.491547 -44.37484 -70.601906 20.034143 -9.8768282 122.36575
6000000000 -8.8648815 129.6712 24.362385 -71.697189 -63.883663 -55.851547 -10.371585 102.56638
6200000000 -8.8522415 109.43311 24.357771 -98.840736 -65.008156 -49.394878 -10.684563 83.258881
6400000000 -8.9196196 89.149292 24.314953 -125.65789 -64.663338 -67.620995 -11.174282 63.254574
6600000000 -9.0562677 68.348915 24.324228 -151.96622 -67.564598 -82.093605 -11.747806 44.171783
6800000000 -9.3089609 47.406181 24.343081 -178.39221 -63.900867 -103.63051 -12.074721 24.325275
7000000000 -9.6287374 26.364408 24.411339 155.32281 -62.177917 -128.57802 -12.719216 2.8071778
7200000000 -10.000144 4.7425299 24.447079 129.00575 -62.125061 -157.38069 -13.143093 -15.783689
7400000000 -10.484547 -17.288624 24.529284 102.95219 -63.255089 -160.25809 -13.433624 -38.061176
7600000000 -11.000935 -39.55875 24.612942 76.672676 -60.36655 154.46373 -13.968137 -59.973972
7800000000 -11.599771 -62.608963 24.647261 50.455528 -61.395653 129.63029 -14.311084 -80.982231
8000000000 -12.190247 -86.121323 24.745419 24.445545 -61.762413 108.32784 -14.332102 -103.95251
8200000000 -12.734221 -110.30374 24.76543 -2.0751619 -58.633057 95.679626 -14.618206 -127.42438
8400000000 -13.152546 -133.93024 24.772886 -27.914412 -60.604874 55.51841 -14.682488 -148.47878
8600000000 -13.531704 -157.75089 24.814005 -54.05962 -59.732395 36.214951 -14.358395 -171.26643
8800000000 -13.777613 179.48395 24.814945 -79.979362 -57.787537 22.708261 -14.328645 166.85909
9000000000 -13.925354 157.38649 24.775341 -105.73755 -59.280392 -10.913527 -14.29647 146.22174
9200000000 -14.060426 136.688 24.78562 -131.41695 -56.948952 -37.337208 -13.902946 126.95554
9400000000 -14.039757 117.03778 24.761223 -157.05963 -56.938473 -61.478874 -13.869182 106.30272
9600000000 -13.992678 98.938507 24.721766 177.44908 -57.551579 -58.878357 -13.774796 88.781364
9800000000 -13.886787 81.167206 24.706028 152.30688 -59.269329 -117.20776 -13.462549 70.557587
10000000000 -13.744324 65.369804 24.711155 126.61066 -55.094372 -129.67372 -13.647229 52.226707
10200000000 -13.576715 49.047745 24.658819 101.53698 -56.653473 -152.90558 -13.873899 35.663887
10400000000 -13.395043 33.802353 24.668316 76.595367 -57.989407 -174.43675 -13.952749 18.904228
10600000000 -13.15586 18.29299 24.680607 51.309429 -56.755009 166.33835 -14.258263 0.51977879
10800000000 -12.938233 3.0817091 24.659798 26.144161 -56.815151 145.59605 -14.834162 -13.763683
11000000000 -12.705596 -12.73819 24.690773 1.2718077 -58.492039 123.76467 -14.849082 -30.558472
11200000000 -12.541587 -28.027876 24.700159 -23.927433 -58.0471 100.56973 -15.944629 -47.827717
11400000000 -12.343281 -44.02977 24.693386 -49.072369 -56.226925 74.288933 -16.551443 -60.020123
11600000000 -12.217094 -60.283768 24.690825 -73.90345 -59.391525 45.748207 -17.367167 -77.350006
11800000000 -12.08699 -76.635628 24.746845 -98.922913 -58.822681 41.510674 -18.755085 -88.615273
12000000000 -12.038517 -94.134415 24.712254 -124.02178 -60.302452 2.8397605 -19.736387 -101.54751
12200000000 -11.985641 -111.18425 24.75275 -148.62721 -58.151638 -9.4491072 -20.659489 -114.92001
12400000000 -12.024933 -129.49593 24.816692 -173.8555 -58.125046 -28.02359 -21.980316 -124.57323
12600000000 -12.046553 -147.54768 24.822052 161.19846 -58.962982 -52.643288 -22.946093 -132.99562
12800000000 -12.20611 -167.17595 24.896969 136.49582 -57.827686 -66.903763 -23.37306 -148.39583
13000000000 -12.349282 173.54106 24.980692 111.25134 -59.706459 -92.13427 -24.823097 -156.50175
13200000000 -12.541452 152.27693 24.997204 86.143669 -60.853077 -118.0125 -23.663929 -168.42882
13400000000 -12.818113 130.96353 25.092525 61.234962 -59.015949 -131.36133 -24.50115 171.40024
13600000000 -13.003078 108.36812 25.177042 35.895348 -61.038071 -156.53596 -24.944696 161.25792
13800000000 -13.325753 84.716881 25.202782 10.404748 -62.46954 -173.55409 -24.295191 137.0249
14000000000 -13.457745 60.149582 25.272291 -14.714144 -59.61581 169.53722 -25.408682 113.55461
14200000000 -13.629917 35.273289 25.370502 -40.359814 -60.799683 143.23015 -26.188293 97.075638
14400000000 -13.48621 9.5353966 25.37418 -65.792892 -58.079548 138.0687 -26.11348 67.02034
14600000000 -13.347802 -16.800982 25.432564 -91.047157 -62.478924 102.04694 -25.637094 33.216324
14800000000 -13.028639 -41.795151 25.515554 -116.8948 -60.050655 90.003838 -26.502327 0.35766846
15000000000 -12.602623 -67.683578 25.520231 -142.49878 -58.859436 74.728363 -23.954676 -25.639616
15200000000 -12.215833 -91.220581 25.546228 -167.80386 -58.351192 52.828239 -22.250109 -58.293591
15400000000 -11.790041 -114.48792 25.603722 166.47049 -58.83847 32.842361 -22.105183 -81.508408
15600000000 -11.519835 -136.78619 25.635225 140.96454 -57.714184 0.42708668 -19.920713 -97.651901
15800000000 -11.392616 -158.93239 25.684586 115.97287 -58.235779 -25.137016 -19.412277 -123.0824
16000000000 -11.355282 -179.97948 25.7957 90.490623 -58.900711 -55.666874 -19.06749 -136.98985
16200000000 -11.473284 158.3582 25.893747 64.765228 -58.055496 -86.55294 -18.133324 -151.58743
16400000000 -11.797539 137.10532 26.062799 39.514858 -58.03199 -94.202797 -18.097422 -167.18581
16600000000 -12.296089 114.769 26.330637 13.614741 -58.564587 -111.39587 -18.208986 -178.15169
16800000000 -12.991272 91.023483 26.523945 -13.022041 -58.704952 -143.03801 -17.897215 171.30753
17000000000 -14.088655 62.832142 26.80102 -39.712399 -60.953995 -167.51633 -18.466587 160.05167
17200000000 -15.267062 29.94874 27.125097 -67.142769 -59.566669 154.11998 -19.294674 156.69743
17400000000 -15.890988 -12.352137 27.341076 -95.65242 -61.004913 133.63492 -19.37541 152.23927
17600000000 -15.38217 -57.777657 27.491058 -124.41663 -62.870831 121.58848 -20.050991 154.47243
17800000000 -13.447785 -100.73619 27.647274 -153.97592 -58.953239 80.060577 -18.614767 162.88808
18000000000 -11.236876 -136.05832 27.601881 176.15848 -58.902649 56.358692 -16.873508 158.76003
18200000000 -9.3005562 -166.45171 27.423239 146.01193 -66.851425 -17.501057 -15.581634 153.38109
18400000000 -7.8178105 165.36865 27.187695 116.10526 -57.779106 -28.205503 -13.249931 142.50641
18600000000 -6.6677022 139.64827 26.824322 85.951065 -61.999813 -77.738846 -12.411311 126.12403
18800000000 -5.889616 114.23064 26.310314 56.631744 -66.117622 -107.8987 -11.522567 112.72687
19000000000 -5.3617163 90.459274 25.837532 27.593832 -60.275719 -117.2982 -10.790111 95.534348
19200000000 -5.0713086 66.487862 25.30262 -1.565255 -60.657597 -176.35228 -10.555444 76.318573
19400000000 -4.9889569 42.53569 24.71314 -29.885004 -58.637047 163.80396 -10.583779 60.240105
19600000000 -5.067028 18.408384 24.183121 -58.485935 -58.75013 126.07457 -10.483115 40.556442
19800000000 -5.3009515 -6.7867579 23.548672 -87.491341 -58.025299 116.87035 -10.96489 18.770664
20000000000 -5.6661916 -32.883926 22.841072 -116.48433 -60.2173 77.554329 -11.567144 -0.84751129
20200000000 -6.1749301 -59.372601 22.014357 -145.24707 -55.725304 51.079762 -11.770558 -24.791407
20400000000 -6.7653441 -86.459312 21.119083 -174.1915 -58.100971 16.270605 -12.646282 -52.049076
20600000000 -7.3340988 -113.2747 19.980392 157.32114 -58.305138 -7.7565241 -13.277742 -77.935059
20800000000 -8.0361624 -139.06621 18.702358 130.1154 -58.6992 -34.743996 -12.922212 -105.25146
21000000000 -8.6090565 -162.4286 17.305183 104.30212 -61.63681 -59.067707 -12.792514 -136.14436
21200000000 -8.9148922 176.52036 15.828675 80.837654 -60.390438 -110.31392 -12.56357 -159.64809
21400000000 -8.7602644 158.21243 14.644966 60.600418 -61.324272 -101.21021 -11.425468 174.97171
21600000000 -8.0562611 139.87953 13.974542 40.239433 -60.372169 -115.07677 -10.603583 151.15837
21800000000 -7.1185317 119.9355 13.547554 18.50157 -60.211998 -124.5217 -9.7805138 130.73698
22000000000 -6.3406405 99.256165 13.198516 -4.7270203 -59.943424 -161.6792 -8.8674068 111.38438
22200000000 -5.6738424 77.907616 12.780968 -29.025757 -62.348686 173.02704 -8.1289215 91.249268
22400000000 -5.2695851 57.244068 12.193787 -54.010708 -59.890167 148.03847 -7.7328248 73.40654
22600000000 -4.9332786 36.935604 11.564932 -77.902122 -59.121223 140.06448 -7.0696292 56.372589
22800000000 -4.7944489 17.184664 10.989985 -102.06234 -60.306023 96.664497 -6.5954566 38.744839
23000000000 -4.6819396 -2.5215874 10.305436 -126.38348 -57.714512 90.634369 -6.5006022 21.659161
23200000000 -4.6776175 -21.948038 9.6555939 -149.49612 -58.045715 80.774834 -6.1554189 5.8537898
23400000000 -4.6664233 -41.357914 9.1892834 -173.28139 -60.842999 51.987244 -5.8923364 -13.146561
23600000000 -4.7341542 -61.009293 8.5313835 162.86934 -58.614655 33.896297 -6.0952001 -29.267828
23800000000 -4.8478384 -80.549545 7.9537325 139.8287 -57.843903 9.0392151 -5.8270097 -46.615646
24000000000 -5.0288415 -100.70691 7.4954166 115.8655 -59.679749 1.7809883 -5.9504957 -66.189079
24200000000 -5.212224 -121.16859 6.9032936 91.512047 -60.868065 -43.441303 -5.9681492 -84.130692
24400000000 -5.4868188 -141.99529 6.2574267 68.403076 -60.47908 -74.832451 -6.0081105 -104.03746
24600000000 -5.7288513 -163.32545 5.7217064 44.853359 -57.851147 -92.45578 -6.0410657 -124.72658
24800000000 -6.0205336 174.55295 5.0972276 21.248575 -59.496914 -105.09583 -6.1338015 -146.02505
25000000000 -6.2889714 152.02098 4.469799 -0.40681881 -61.113453 -128.8651 -6.3194451 -167.5024
25200000000 -6.5400763 129.33514 4.1595802 -22.655443 -58.847034 -150.39015 -6.2796283 169.26411
25400000000 -6.7015467 105.88116 3.7960627 -46.325699 -61.284622 -170.18275 -6.6626697 146.41583
25600000000 -6.8738542 82.997795 3.4957542 -69.161865 -59.314529 153.52251 -6.6893673 125.9869
25800000000 -6.9408946 59.825237 3.3423839 -93.705162 -59.968918 144.05406 -6.6439052 102.19012
26000000000 -7.042407 36.645752 2.852155 -119.22958 -60.946831 126.47244 -7.0569196 81.563087
