!Keysight Technologies,N5244A,MY52442000,A.10.40.14
!Date: Thursday, July 16, 2020 11:13:10
!Correction: S11(Full 2 Port(1,2)) 
!S21(Full 2 Port(1,2)) 
!S12(Full 2 Port(1,2)) 
!S22(Full 2 Port(1,2)) 
!S2P File: Measurements: S11, S21, S12, S22:
# Hz S  dB   R 50
10000000 -1.1115879 177.38959 -58.214993 -100.06636 -65.549316 101.48258 -25.699661 172.51201
20000000 -1.2170814 176.4975 -58.623932 157.59714 -63.126591 54.900105 -26.143385 174.53087
30000000 -1.226455 175.10405 -68.394981 127.80154 -80.456009 111.76506 -26.190168 172.03018
40000000 -1.2608548 173.73756 -64.207283 -137.03795 -71.354401 14.80462 -26.559153 168.40381
50000000 -1.2663934 172.30905 -70.148125 119.94001 -62.761749 -30.585901 -26.664402 167.22679
60000000 -1.2549431 170.94556 -67.730164 131.95331 -62.76009 -161.34293 -26.635225 164.30203
70000000 -1.2576205 169.60403 -75.171494 -90.190224 -86.272247 -33.867489 -26.798622 161.05463
80000000 -1.2510631 168.03024 -64.346832 -96.005745 -64.98317 175.16418 -26.491383 157.29724
90000000 -1.2632343 166.53215 -74.924332 -111.53157 -76.302284 -41.558746 -26.264984 154.96698
100000000 -1.2871895 164.95451 -66.438347 90.167702 -85.664558 53.295437 -26.313526 153.16986
500000000 -1.4246283 108.65164 -46.694332 49.862232 -75.11338 -146.2968 -22.934492 81.303192
1000000000 -1.457875 39.892052 -25.766806 4.9158735 -76.052544 -38.759563 -19.042765 20.359594
1500000000 -1.5755724 -29.056578 -10.063831 -46.176052 -87.157829 -82.831024 -16.224901 -34.846207
2000000000 -2.8114359 -95.849159 1.9943588 -143.05568 -63.356773 -41.348736 -14.129405 -92.265816
2500000000 -3.4353385 -161.56769 7.7444062 142.44324 -61.538132 -142.6588 -11.913171 -155.76866
3000000000 -4.3897495 127.16309 14.797797 68.721619 -63.843967 127.65318 -9.4987564 131.03134
3500000000 -5.8214617 52.670502 20.976835 -19.606421 -66.702072 30.803133 -7.7643566 48.767155
4000000000 -7.6505947 -19.138868 24.441498 -114.81525 -67.019058 -140.49379 -7.5185266 -30.155935
4200000000 -8.4052572 -45.294788 25.123667 -151.65038 -66.242409 178.94444 -7.6749272 -57.731056
4400000000 -9.0582781 -69.190796 25.55665 172.7816 -74.217293 33.965298 -7.8354826 -84.121178
4600000000 -9.6617565 -91.357025 25.757896 138.16879 -77.163132 -1.6539441 -8.0989752 -109.0321
4800000000 -10.00886 -111.78419 25.790947 105.00573 -71.277245 105.22461 -8.3911343 -132.20387
5000000000 -10.159833 -131.21356 25.785812 73.294426 -70.788177 62.501827 -8.531414 -155.1315
5200000000 -10.095261 -150.4632 25.661148 42.435719 -70.860924 1.7789263 -8.9442844 -177.28127
5400000000 -9.9037056 -169.81616 25.53488 12.938518 -74.064903 16.711998 -9.1160612 162.47778
5600000000 -9.684454 170.95993 25.412073 -15.810237 -65.334244 39.182381 -9.4870653 141.43117
5800000000 -9.5306835 151.09373 25.303162 -43.987259 -66.573875 -61.670216 -9.8318138 121.46164
6000000000 -9.3876143 131.30724 25.17355 -71.239487 -64.544479 -33.59948 -10.333377 101.6859
6200000000 -9.3564978 111.32358 25.169037 -98.294937 -64.142982 -83.258446 -10.686377 82.301544
6400000000 -9.3837404 91.281273 25.12822 -125.02175 -71.57988 -84.874489 -11.183877 62.280487
6600000000 -9.4859848 70.630402 25.141153 -151.2578 -69.997253 -87.449112 -11.7562 43.116795
6800000000 -9.7083063 49.810574 25.164221 -177.58678 -64.93969 -111.57489 -12.109789 23.245142
7000000000 -10.010956 28.898251 25.237146 156.2215 -62.1605 -156.46927 -12.778273 1.9324152
7200000000 -10.384861 7.3749089 25.280952 130.00584 -64.146622 -153.09203 -13.214446 -16.914003
7400000000 -10.877124 -14.553743 25.374287 104.04644 -63.693165 171.28569 -13.501163 -39.017307
7600000000 -11.403576 -36.718273 25.468624 77.841621 -61.469219 158.53741 -14.049711 -61.104275
7800000000 -12.003443 -59.617302 25.514767 51.7057 -58.925766 140.35229 -14.375735 -81.941536
8000000000 -12.620584 -83.194412 25.628635 25.756533 -59.874512 100.72192 -14.394342 -104.83414
8200000000 -13.222034 -107.33472 25.664383 -0.72258329 -59.102116 74.627502 -14.72247 -128.74232
8400000000 -13.675058 -131.16347 25.686708 -26.532909 -60.155983 64.044464 -14.779672 -149.44296
8600000000 -14.101251 -155.03023 25.745333 -52.647972 -60.355438 31.454138 -14.458627 -172.15298
8800000000 -14.380045 -177.88246 25.764343 -78.562103 -57.879333 11.665067 -14.404605 165.99548
9000000000 -14.523913 159.90384 25.739769 -104.33817 -58.658363 -13.540063 -14.379161 145.31403
9200000000 -14.683373 139.14563 25.764608 -130.03987 -58.20731 -29.556524 -13.970847 126.08394
9400000000 -14.644171 119.51392 25.754019 -155.71744 -57.85762 -59.062202 -13.943399 105.32161
9600000000 -14.549888 101.97289 25.728695 178.73695 -56.15321 -97.098145 -13.854239 87.763908
9800000000 -14.462991 84.334106 25.722311 153.54849 -58.704697 -93.55352 -13.563068 69.742851
10000000000 -14.24987 68.86676 25.736813 127.78337 -59.13549 -134.36949 -13.722613 51.407391
10200000000 -14.015908 52.994541 25.690617 102.63967 -57.797539 -152.93248 -13.940455 34.888664
10400000000 -13.744292 38.119152 25.708725 77.613342 -57.778423 -157.44513 -14.02971 18.075441
10600000000 -13.415322 22.690477 25.723417 52.247524 -57.819027 172.79573 -14.332713 -0.48243099
10800000000 -13.104873 7.6345773 25.706059 27.014496 -57.046021 150.67191 -14.951818 -14.81228
11000000000 -12.778502 -8.0988941 25.737865 2.0747423 -58.89101 122.93386 -14.963799 -31.595547
11200000000 -12.530861 -23.584063 25.748871 -23.197388 -57.904037 100.63299 -16.100006 -48.909981
11400000000 -12.241896 -39.61277 25.737812 -48.3965 -58.20813 67.031044 -16.764582 -61.092976
11600000000 -12.076341 -56.002651 25.734512 -73.292725 -57.507164 57.889301 -17.674921 -78.499268
11800000000 -11.84413 -72.554077 25.785713 -98.374191 -57.20232 37.273197 -19.158316 -89.397537
12000000000 -11.758696 -90.181076 25.750961 -123.50172 -58.343304 5.9028492 -20.284475 -101.72438
12200000000 -11.658366 -107.50173 25.786285 -148.15039 -59.02668 -4.7511783 -21.366287 -114.34007
12400000000 -11.652382 -126.04617 25.847359 -173.41747 -58.907864 -29.278423 -22.797155 -122.45815
12600000000 -11.63264 -144.26706 25.849588 161.60753 -57.68121 -45.82534 -23.762224 -128.76779
12800000000 -11.763878 -163.9395 25.923653 136.87679 -59.718922 -74.75296 -24.221905 -142.7205
13000000000 -11.860456 176.55545 26.003426 111.60293 -59.998791 -90.214272 -25.535011 -148.453
13200000000 -12.026495 155.11435 26.019732 86.472572 -59.0839 -101.5649 -24.019474 -160.28738
13400000000 -12.291446 133.91728 26.116219 61.52903 -61.181042 -139.65382 -24.723989 -179.92877
13600000000 -12.475657 111.29519 26.199635 36.14592 -60.4678 -150.20634 -24.793795 170.9472
13800000000 -12.760806 87.56179 26.225739 10.605815 -62.956314 -172.80281 -24.16683 146.26712
14000000000 -12.916431 62.966408 26.293186 -14.585052 -59.540516 171.82851 -25.28842 124.30109
14200000000 -13.095278 38.23542 26.39109 -40.265366 -60.753361 167.07486 -25.751299 108.3888
14400000000 -12.983385 12.319741 26.392723 -65.766273 -60.24786 140.92596 -25.985804 77.967628
14600000000 -12.876019 -13.844398 26.446644 -91.077812 -60.586109 107.05825 -25.688549 43.624229
14800000000 -12.590447 -39.103916 26.523401 -117.02047 -58.602116 88.121452 -26.83128 11.70013
15000000000 -12.216756 -65.186073 26.521421 -142.69299 -59.843376 71.549652 -24.333454 -17.797798
15200000000 -11.846497 -89.055595 26.535042 -168.07785 -58.595039 62.023479 -22.723768 -52.139172
15400000000 -11.438018 -112.52673 26.581911 166.12675 -59.796375 11.831231 -22.493742 -75.960243
15600000000 -11.192893 -135.07381 26.598083 140.56831 -58.168861 -4.0589781 -20.147179 -93.041763
15800000000 -11.090906 -157.37686 26.632187 115.54523 -58.035213 -13.539341 -19.669064 -118.85498
16000000000 -11.050276 -178.57632 26.727612 90.034477 -60.900669 -47.191868 -19.185919 -132.71838
16200000000 -11.188424 159.72951 26.811724 64.287277 -59.394958 -61.79324 -18.201521 -147.32227
16400000000 -11.519608 138.38139 26.968838 39.038986 -59.425072 -100.45945 -18.101408 -162.96997
16600000000 -12.02691 116.00206 27.225235 13.13029 -59.486477 -119.42884 -18.084114 -174.07735
16800000000 -12.729205 92.211685 27.407272 -13.512703 -61.058498 -142.91084 -17.60313 175.27777
17000000000 -13.822507 64.259056 27.672398 -40.2248 -61.18882 -168.26405 -18.038445 163.85956
17200000000 -15.013222 31.518274 27.981339 -67.681641 -56.915142 167.14063 -18.626175 160.03217
17400000000 -15.729268 -10.613562 28.182556 -96.193138 -59.600857 139.59491 -18.644463 153.65591
17600000000 -15.321579 -56.480572 28.31362 -124.9762 -61.018406 94.152458 -19.277679 154.049
17800000000 -13.42434 -99.773338 28.450796 -154.5215 -62.352833 30.059273 -17.973497 159.82207
18000000000 -11.252277 -135.57962 28.384451 175.66057 -61.282173 40.36261 -16.558319 155.54131
18200000000 -9.3026152 -166.29547 28.182806 145.56383 -63.210884 0.97490811 -15.502975 150.05035
18400000000 -7.8134832 165.38141 27.927351 115.72784 -61.992237 -1.1095703 -13.301003 140.07936
18600000000 -6.6649394 139.6234 27.544437 85.68251 -63.115322 -53.435123 -12.51131 123.87743
18800000000 -5.8866949 114.23611 27.012243 56.481388 -66.505959 -123.72299 -11.697918 111.1228
19000000000 -5.3624392 90.419571 26.525341 27.564737 -59.000801 -114.326 -10.944706 94.222198
19200000000 -5.0733409 66.512016 25.980045 -1.4397907 -61.768757 -160.66113 -10.73949 75.255974
19400000000 -4.973455 42.562138 25.385056 -29.622545 -60.928276 152.62979 -10.779957 59.516609
19600000000 -5.0484695 18.370169 24.852867 -58.085255 -61.647633 140.98854 -10.68736 40.083492
19800000000 -5.2697558 -6.7973866 24.221886 -86.948906 -61.642372 82.589081 -11.163233 18.53479
20000000000 -5.6352935 -32.924358 23.518808 -115.81522 -57.173584 54.935574 -11.769106 -1.1747117
20200000000 -6.1203842 -59.489212 22.701929 -144.48453 -58.443611 58.976486 -11.965641 -24.808413
20400000000 -6.6926751 -86.679115 21.817587 -173.35291 -57.676559 19.573114 -12.849211 -52.137833
20600000000 -7.2468405 -113.72111 20.694221 158.18362 -61.636822 5.4552822 -13.495301 -78.12986
20800000000 -7.9570432 -139.73631 19.428812 130.96265 -64.296646 -24.351601 -13.103396 -105.39112
21000000000 -8.5416889 -163.39499 18.040012 105.07823 -60.614841 -66.622269 -12.957579 -136.44237
21200000000 -8.883214 175.60802 16.563124 81.518524 -66.290665 -99.781799 -12.710873 -159.88332
21400000000 -8.7875853 157.38229 15.363274 61.21357 -64.903366 -84.209991 -11.543008 174.72061
21600000000 -8.0957298 139.44348 14.674987 40.857494 -63.826851 -116.76412 -10.703065 150.87593
21800000000 -7.1324716 119.70919 14.233006 19.191309 -59.224983 -131.76787 -9.8694458 130.55197
22000000000 -6.3347292 99.144096 13.878269 -3.9537544 -62.735416 -158.11327 -8.9425297 111.2245
22200000000 -5.6561818 77.877289 13.453793 -28.192749 -61.644432 177.30893 -8.188776 91.260521
22400000000 -5.2268062 57.269779 12.863612 -53.097073 -58.251633 155.50658 -7.7831836 73.377281
22600000000 -4.8864541 36.976257 12.230653 -76.934387 -60.768192 147.69005 -7.1066561 56.501984
22800000000 -4.743762 17.185566 11.652981 -101.00621 -59.769657 114.74435 -6.6260419 38.884792
23000000000 -4.628242 -2.480607 10.967834 -125.2519 -59.551498 95.635162 -6.5341854 21.855633
23200000000 -4.6124187 -21.974655 10.318275 -148.2919 -59.405579 69.950508 -6.1734591 6.0927253
23400000000 -4.5964031 -41.370991 9.8547564 -172.02176 -59.669571 39.650917 -5.9017143 -12.833336
23600000000 -4.6603947 -61.048244 9.1992407 164.21709 -59.194218 32.872513 -6.113863 -28.976797
23800000000 -4.7782879 -80.615768 8.625473 141.21568 -60.216694 -2.0141983 -5.8332014 -46.170597
24000000000 -4.9460793 -100.81066 8.171669 117.31577 -61.161663 -15.371984 -5.9600778 -65.75531
24200000000 -5.1211939 -121.29446 7.5865049 93.020279 -61.03986 -34.611786 -5.9740067 -83.728043
24400000000 -5.3986392 -142.19299 6.9410238 69.946899 -57.492542 -61.705418 -6.0174179 -103.61345
24600000000 -5.6257987 -163.54993 6.4108768 46.42168 -61.22628 -80.843674 -6.0452151 -124.22598
24800000000 -5.9226532 174.26628 5.7894483 22.8563 -60.900497 -97.210037 -6.1321816 -145.59485
25000000000 -6.1804299 151.73553 5.1611977 1.2161437 -60.827095 -137.46599 -6.3234978 -166.98967
25200000000 -6.4284906 128.99376 4.852334 -20.991701 -58.114735 -153.1797 -6.2865753 169.70949
25400000000 -6.5847406 105.4781 4.4921684 -44.590214 -62.678089 -179.09882 -6.6657548 146.81186
25600000000 -6.7551641 82.554581 4.1956167 -67.385666 -60.56871 158.69656 -6.6972213 126.38119
25800000000 -6.8160977 59.33358 4.0509925 -91.8918 -59.392551 143.08408 -6.6623902 102.59422
26000000000 -6.9088998 36.153515 3.5681159 -117.41328 -57.209644 131.19318 -7.0627394 81.970421
