# MHz S MA R 50

1000	0.99852539	-35.625793	1.649867e-05	11.968776	1.649867e-05	11.968776	0.99852647	-35.622925	
1070.3125	0.99846345	-38.108914	1.4350171e-05	14.70213	1.4350171e-05	14.70213	0.9984562	-38.105594	
1140.625	0.99838884	-40.587476	1.2023274e-05	18.76363	1.2023274e-05	18.76363	0.99839319	-40.584239	
1210.9375	0.99832002	-43.06182	9.5572216e-06	25.41742	9.5572216e-06	25.41742	0.99832193	-43.058575	
1281.25	0.99823734	-45.531681	7.0929461e-06	37.838806	7.0929461e-06	37.838806	0.99824382	-45.528025	
1351.5625	0.99816603	-47.996404	5.1477839e-06	63.865621	5.1477839e-06	63.865621	0.99816308	-47.993161	
1421.875	0.99808612	-50.4569	5.1167568e-06	105.86254	5.1167568e-06	105.86254	0.99808711	-50.453224	
1492.1875	0.9980012	-52.912401	7.5613588e-06	135.88545	7.5613588e-06	135.88545	0.99800548	-52.908268	
1562.5	0.9979173	-55.362402	1.1368335e-05	150.14037	1.1368335e-05	150.14037	0.9979185	-55.358262	
1703.125	0.99773914	-60.246999	2.1177138e-05	161.57238	2.1177138e-05	161.57238	0.99773419	-60.242867	
1843.75	0.99753854	-65.11073	3.3520578e-05	165.7836	3.3520578e-05	165.7836	0.99754079	-65.106357	
1984.375	0.99734699	-69.953088	4.8748051e-05	167.42562	4.8748051e-05	167.42562	0.9973522	-69.948916	
2125	0.9971353	-74.775472	6.7544056e-05	167.69117	6.7544056e-05	167.69117	0.99714666	-74.770885	
2265.625	0.99692886	-79.577488	9.0864015e-05	166.93377	9.0864015e-05	166.93377	0.99693169	-79.573427	
2406.25	0.99670454	-84.360278	0.00011994911	165.18785	0.00011994911	165.18785	0.99671162	-84.356159	
2546.875	0.99648584	-89.126344	0.00015625017	162.30255	0.00015625017	162.30255	0.99648691	-89.12232	
2687.5	0.99625017	-93.877216	0.0002009865	157.99287	0.0002009865	157.99287	0.99625562	-93.873333	
2828.125	0.99600833	-98.615217	0.00025379068	151.94123	0.00025379068	151.94123	0.99600923	-98.611719	
2968.75	0.99576387	-103.34404	0.00031013492	144.10418	0.00031013492	144.10418	0.99576949	-103.34041	
3109.375	0.99551191	-108.06657	0.00036018782	135.25092	0.00036018782	135.25092	0.99551542	-108.06348	
3250	0.99524428	-112.78797	0.00039541307	127.10359	0.00039541307	127.10359	0.99524336	-112.78487	
3390.625	0.99496701	-117.51203	0.00041864751	121.29027	0.00041864751	121.29027	0.99496627	-117.50946	
3531.25	0.99467467	-122.24504	0.00044190261	118.14515	0.00044190261	118.14515	0.99468404	-122.24266	
3671.875	0.9943683	-126.99309	0.00047659343	116.8093	0.00047659343	116.8093	0.99438023	-126.99113	
3812.5	0.99403866	-131.76297	0.00052960965	116.07376	0.00052960965	116.07376	0.99404692	-131.76177	
3953.125	0.99369248	-136.56378	0.00060450671	114.97302	0.00060450671	114.97302	0.99370623	-136.56294	
4093.75	0.99332665	-141.40415	0.00070328429	112.92864	0.00070328429	112.92864	0.99332665	-141.40415	
4234.375	0.99291616	-146.29473	0.00082715398	109.65731	0.00082715398	109.65731	0.99291893	-146.29553	
4375	0.99247276	-151.24791	0.00097625915	105.04907	0.00097625915	105.04907	0.99248548	-151.24897	
4445.3125	0.99224351	-153.75181	0.0010597831	102.2383	0.0010597831	102.2383	0.9922526	-153.75335	
4515.625	0.99198558	-156.27643	0.0011486462	99.097698	0.0011486462	99.097698	0.99200098	-156.27872	
4585.9375	0.99172423	-158.82428	0.0012420627	95.640247	0.0012420627	95.640247	0.99174137	-158.82652	
4656.25	0.99145423	-161.39656	0.0013389809	91.885257	0.0013389809	91.885257	0.99145723	-161.39967	
4726.5625	0.99116275	-163.99648	0.0014380977	87.858806	0.0014380977	87.858806	0.9911778	-163.99974	
4796.875	0.99086062	-166.62615	0.0015379113	83.593761	0.0015379113	83.593761	0.99086621	-166.62979	
4867.1875	0.99053252	-169.28757	0.0016368152	79.12913	0.0016368152	79.12913	0.99054899	-169.29187	
4937.5	0.99019331	-171.98471	0.0017332228	74.508603	0.0017332228	74.508603	0.99020336	-171.98888	
5007.8125	0.98983087	-174.71943	0.0018257081	69.778371	0.0018257081	69.778371	0.98984297	-174.72444	
5078.125	0.98944479	-177.49594	0.0019131333	64.984443	0.0019131333	64.984443	0.98946063	-177.50149	
5148.4375	0.98903517	179.68264	0.0019947437	60.169875	0.0019947437	60.169875	0.98904576	179.67652	
5218.75	0.98859946	176.81249	0.0020702095	55.372313	0.0020702095	55.372313	0.98861595	176.80575	
5289.0625	0.98813379	173.88969	0.0021396158	50.622187	0.0021396158	50.622187	0.98814763	173.88219	
5359.375	0.98764444	170.90963	0.0022034085	45.94174	0.0022034085	45.94174	0.98765669	170.90152	
5429.6875	0.98710922	167.86714	0.0022623134	41.344864	0.0022623134	41.344864	0.98713098	167.8585	
5500	0.98654295	164.75792	0.0023172493	36.837606	0.0023172493	36.837606	0.98656836	164.74809	
5570.3125	0.98593495	161.57608	0.0023692477	32.419119	0.0023692477	32.419119	0.98595706	161.56487	
5640.625	0.98529035	158.31489	0.0024193899	28.082851	0.0024193899	28.082851	0.98530482	158.30333	
5710.9375	0.98459399	154.96901	0.0024687637	23.817769	0.0024687637	23.817769	0.98461038	154.95597	
5781.25	0.98383659	151.53023	0.0025184396	19.609528	0.0025184396	19.609528	0.98385836	151.51568	
5851.5625	0.98303568	147.99103	0.0025694617	15.441497	0.0025694617	15.441497	0.98304739	147.97565	
5921.875	0.98216444	144.34405	0.0026228504	11.295635	0.0026228504	11.295635	0.98218021	144.32676	
5992.1875	0.98123407	140.57953	0.0026796114	7.1532127	0.0026796114	7.1532127	0.98124473	140.56039	
6062.5	0.98024878	136.68736	0.0027407463	2.9954023	0.0027407463	2.9954023	0.98025984	136.66708	
6132.8125	0.9792136	132.65756	0.0028072624	-1.1962589	0.0028072624	-1.1962589	0.9792287	132.63607	
6203.125	0.97817901	128.47749	0.0028801759	-5.4395113	0.0028801759	-5.4395113	0.97818814	128.45463	
6273.4375	0.9771834	124.13207	0.0029605051	-9.751128	0.0029605051	-9.751128	0.97719404	124.10686	
6343.75	0.97625072	119.6006	0.0030492465	-14.146787	0.0030492465	-14.146787	0.97627933	119.57265	
6414.0625	0.97535337	114.85929	0.0031473262	-18.641068	0.0031473262	-18.641068	0.97539184	114.82782	
6484.375	0.97434762	109.88574	0.0032555119	-23.247583	0.0032555119	-23.247583	0.97438981	109.85108	
6554.6875	0.97310854	104.66202	0.0033742643	-27.979214	0.0033742643	-27.979214	0.97314279	104.62315	
6625	0.97157616	99.169728	0.0035034898	-32.848422	0.0035034898	-32.848422	0.9716082	99.12582	
6660.15625	0.97070093	96.315488	0.0035717527	-35.33846	0.0035717527	-35.33846	0.97073582	96.269537	
6695.3125	0.96975267	93.385765	0.0036421284	-37.867489	0.0036421284	-37.867489	0.96978463	93.337301	
6730.46875	0.9687408	90.375441	0.0037142208	-40.437007	0.0037142208	-40.437007	0.96876553	90.324461	
6765.625	0.96764938	87.281003	0.003787463	-43.048456	0.003787463	-43.048456	0.96768284	87.227333	
6800.78125	0.96649328	84.097932	0.0038610646	-45.703153	0.0038610646	-45.703153	0.96652149	84.041664	
6835.9375	0.96525912	80.821453	0.0039339423	-48.40219	0.0039339423	-48.40219	0.96528922	80.762212	
6871.09375	0.96394359	77.446758	0.0040046272	-51.146253	0.0040046272	-51.146253	0.963975	77.383837	
6906.25	0.96254155	73.966707	0.0040711423	-53.935331	0.0040711423	-53.935331	0.96257138	73.900319	
6941.40625	0.96104574	70.376855	0.0041308383	-56.768251	0.0041308383	-56.768251	0.9610835	70.306756	
6976.5625	0.95944682	66.669754	0.0041801722	-59.641899	0.0041801722	-59.641899	0.95948066	66.595818	
7011.71875	0.95773315	62.837515	0.0042144098	-62.549921	0.0042144098	-62.549921	0.95776102	62.759675	
7046.875	0.95588382	58.873105	0.0042272225	-65.48049	0.0042272225	-65.48049	0.95590931	58.790669	
7082.03125	0.95388114	54.766762	0.0042101409	-68.412301	0.0042101409	-68.412301	0.95390475	54.679474	
7117.1875	0.95170603	50.508541	0.0041518183	-71.307039	0.0041518183	-71.307039	0.95173728	50.416419	
7152.34375	0.94932042	46.087478	0.0040370498	-74.094295	0.0040370498	-74.094295	0.9493547	45.989695	
7187.5	0.94671063	41.490349	0.0038455204	-76.638684	0.0038455204	-76.638684	0.94673885	41.387122	
7207.03125	0.94514096	38.854555	0.0036963765	-77.854577	0.0036963765	-77.854577	0.9451616	38.747759	
7226.5625	0.943471	36.157167	0.0035098199	-78.829854	0.0035098199	-78.829854	0.94348922	36.047376	
7246.09375	0.94169376	33.394587	0.0032796148	-79.424529	0.0032796148	-79.424529	0.94171627	33.281532	
7265.625	0.93979917	30.563409	0.0029992041	-79.393653	0.0029992041	-79.393653	0.93981104	30.446937	
7285.15625	0.93776365	27.660537	0.0026628117	-78.275195	0.0026628117	-78.275195	0.93778168	27.54	
7304.6875	0.93558498	24.680443	0.0022688824	-75.110892	0.0022688824	-75.110892	0.93560447	24.556621	
7324.21875	0.93323148	21.619453	0.0018316221	-67.688914	0.0018316221	-67.688914	0.93324784	21.491654	
7343.75	0.93069013	18.471938	0.0014234964	-50.743782	0.0014234964	-50.743782	0.93070701	18.340532	
7363.28125	0.92793009	15.232428	0.0012932002	-18.26589	0.0012932002	-18.26589	0.92794497	15.096556	
7382.8125	0.92492578	11.893444	0.001761341	13.344955	0.001761341	13.344955	0.92493298	11.753482	
7402.34375	0.92161894	8.447582	0.0027538904	29.17139	0.0027538904	29.17139	0.92162175	8.3036556	
7421.875	0.91797783	4.8874812	0.0041336156	35.631673	0.0041336156	35.631673	0.91797818	4.7389692	
7441.40625	0.91394101	1.2016845	0.0058870941	37.759588	0.0058870941	37.759588	0.91394306	1.0486241	
7460.9375	0.9094512	-2.6207219	0.0080624699	37.65135	0.0080624699	37.65135	0.90943899	-2.7783091	
7480.46875	0.90439989	-6.5924015	0.010742232	36.210425	0.010742232	36.210425	0.90438834	-6.7551386	
7500	0.89868348	-10.730138	0.014038807	33.866197	0.014038807	33.866197	0.89867642	-10.897688	
7509.765625	0.8955457	-12.866484	0.015962993	32.426789	0.015962993	32.426789	0.89552945	-13.036098	
7519.53125	0.89217886	-15.051673	0.018099923	30.831564	0.018099923	30.831564	0.89215758	-15.223689	
7529.296875	0.88857253	-17.287902	0.020474176	29.092902	0.020474176	29.092902	0.88855087	-17.462655	
7539.0625	0.88470002	-19.578414	0.023114394	27.218001	0.023114394	27.218001	0.88467642	-19.755027	
7548.828125	0.88052296	-21.92635	0.026053456	25.209668	0.026053456	25.209668	0.88049618	-22.106038	
7558.59375	0.87600749	-24.335911	0.029325526	23.071344	0.029325526	23.071344	0.87598431	-24.517628	
7568.359375	0.87111301	-26.810664	0.032975014	20.804355	0.032975014	20.804355	0.87108929	-26.995109	
7578.125	0.86581224	-29.355158	0.037047985	18.404627	0.037047985	18.404627	0.86578025	-29.542544	
7587.890625	0.86002411	-31.973817	0.041597759	15.871231	0.041597759	15.871231	0.85999335	-32.163786	
7597.65625	0.85370372	-34.672572	0.046684127	13.198284	0.046684127	13.198284	0.85367701	-34.864182	
7607.421875	0.8467783	-37.456007	0.052376505	10.382025	0.052376505	10.382025	0.84674461	-37.650652	
7617.1875	0.83915821	-40.330539	0.058752116	7.4134592	0.058752116	7.4134592	0.83912566	-40.527975	
7622.070313	0.83506254	-41.804023	0.062223219	5.8695611	0.062223219	5.8695611	0.83503303	-42.003125	
7626.953125	0.83075516	-43.303115	0.065899151	4.2843631	0.065899151	4.2843631	0.83072366	-43.503572	
7631.835938	0.8262226	-44.828866	0.069791006	2.6566004	0.069791006	2.6566004	0.82619075	-45.029913	
7636.71875	0.82145831	-46.381091	0.073913918	0.98482321	0.073913918	0.98482321	0.8214202	-46.583443	
7641.601563	0.81641975	-47.961406	0.078281395	-0.73237987	0.078281395	-0.73237987	0.8163911	-48.165268	
7646.484375	0.81112073	-49.570635	0.082906693	-2.4965834	0.082906693	-2.4965834	0.81108914	-49.776294	
7651.367188	0.80552602	-51.210557	0.087807259	-4.3095037	0.087807259	-4.3095037	0.80549031	-51.416288	
7656.25	0.79961757	-52.880746	0.092998208	-6.1728901	0.092998208	-6.1728901	0.79958022	-53.087825	
7659.179688	0.79590358	-53.898529	0.096258556	-7.3155692	0.096258556	-7.3155692	0.79587346	-54.10606	
7662.109375	0.79206779	-54.927681	0.099633748	-8.4780185	0.099633748	-8.4780185	0.7920395	-55.136343	
7665.039063	0.78810705	-55.968764	0.10312235	-9.660534	0.10312235	-9.660534	0.78807297	-56.178259	
7667.96875	0.78401001	-57.021996	0.10674241	-10.86201	0.10674241	-10.86201	0.78397065	-57.232455	
7670.898438	0.77976515	-58.087692	0.1104784	-12.084977	0.1104784	-12.084977	0.77972634	-58.298625	
7673.828125	0.77536595	-59.165634	0.11434997	-13.328227	0.11434997	-13.328227	0.77533656	-59.37754	
7676.757813	0.77082254	-60.256409	0.11835812	-14.592769	0.11835812	-14.592769	0.77079442	-60.469021	
7679.6875	0.76611403	-61.360174	0.12250455	-15.878968	0.12250455	-15.878968	0.76607876	-61.573266	
7682.617188	0.76123264	-62.476927	0.12678291	-17.189249	0.12678291	-17.189249	0.76120393	-62.69033	
7685.546875	0.75617899	-63.607087	0.13121601	-18.520974	0.13121601	-18.520974	0.75615696	-63.820918	
7688.476563	0.7509487	-64.750105	0.13579919	-19.875651	0.13579919	-19.875651	0.75092924	-64.965176	
7691.40625	0.74552798	-65.906885	0.14053952	-21.254432	0.14053952	-21.254432	0.74550655	-66.122334	
7694.335938	0.73991502	-67.076348	0.14543388	-22.657382	0.14543388	-22.657382	0.73988778	-67.293047	
7697.265625	0.73409124	-68.260333	0.15049191	-24.085224	0.15049191	-24.085224	0.73407536	-68.477308	
7700.195313	0.72806618	-69.457494	0.15571434	-25.538836	0.15571434	-25.538836	0.72804869	-69.675333	
7703.125	0.72181823	-70.668148	0.16110256	-27.01835	0.16110256	-27.01835	0.72181203	-70.886544	
7706.054688	0.71534735	-71.892548	0.16666963	-28.523132	0.16666963	-28.523132	0.71534289	-72.111394	
7708.984375	0.70864614	-73.129995	0.17241105	-30.054687	0.17241105	-30.054687	0.70864324	-73.349467	
7711.914063	0.70170963	-74.381656	0.17832494	-31.614806	0.17832494	-31.614806	0.7016986	-74.601724	
7714.84375	0.69451146	-75.645817	0.1844224	-33.198914	0.1844224	-33.198914	0.69451389	-75.866314	
7717.773438	0.68706868	-76.922689	0.19071484	-34.813338	0.19071484	-34.813338	0.68707446	-77.14358	
7720.703125	0.67936595	-78.212721	0.1971791	-36.457855	0.1971791	-36.457855	0.67937464	-78.434198	
7723.632813	0.6713926	-79.514024	0.20383902	-38.126442	0.20383902	-38.126442	0.67140373	-79.736294	
7726.5625	0.66314962	-80.827582	0.2106847	-39.827856	0.2106847	-39.827856	0.66316435	-81.050011	
7729.492188	0.65462233	-82.15136	0.21771471	-41.559014	0.21771471	-41.559014	0.65464956	-82.374357	
7732.421875	0.64580918	-83.486041	0.22492865	-43.317434	0.22492865	-43.317434	0.64583859	-83.70943	
7735.351563	0.63670999	-84.83033	0.23233448	-45.106371	0.23233448	-45.106371	0.6367409	-85.05407	
7738.28125	0.62732143	-86.183161	0.2399222	-46.923723	0.2399222	-46.923723	0.6273629	-86.407361	
7741.210938	0.61763751	-87.543638	0.24769187	-48.772947	0.24769187	-48.772947	0.61767858	-87.768097	
7744.140625	0.60764989	-88.91031	0.25564527	-50.650986	0.25564527	-50.650986	0.60769923	-89.135165	
7747.070313	0.59736723	-90.281901	0.26376517	-52.557494	0.26376517	-52.557494	0.5974234	-90.507094	
7750	0.58679532	-91.656822	0.27205323	-54.495373	0.27205323	-54.495373	0.58685669	-91.882384	
7753.255208	0.57469853	-93.186466	0.28145534	-56.684265	0.28145534	-56.684265	0.57476899	-93.412237	
7756.510417	0.5622529	-94.715218	0.29104241	-58.907611	0.29104241	-58.907611	0.56232989	-94.941266	
7759.765625	0.54945565	-96.240295	0.30080363	-61.165924	0.30080363	-61.165924	0.54954638	-96.466588	
7763.020833	0.5363293	-97.758247	0.31072404	-63.459688	0.31072404	-63.459688	0.53643061	-97.984715	
7766.276042	0.5228818	-99.265281	0.32079257	-65.786343	0.32079257	-65.786343	0.52300027	-99.491787	
7769.53125	0.50913706	-100.75718	0.33099651	-68.146196	0.33099651	-68.146196	0.50925948	-100.98404	
7772.786458	0.49510392	-102.22869	0.34131538	-70.536221	0.34131538	-70.536221	0.49524721	-102.45603	
7776.041667	0.48083392	-103.67672	0.35171437	-72.957635	0.35171437	-72.957635	0.48099308	-103.90392	
7777.669271	0.47361802	-104.38951	0.35694297	-74.178232	0.35694297	-74.178232	0.47377403	-104.61701	
7779.296875	0.46633972	-105.09445	0.36219484	-75.406738	0.36219484	-75.406738	0.46650834	-105.3205	
7780.924479	0.4590195	-105.78937	0.36745144	-76.641849	0.36745144	-76.641849	0.45919535	-106.01669	
7782.552083	0.45165398	-106.47531	0.3727133	-77.883276	0.3727133	-77.883276	0.45184306	-106.7024	
7784.179688	0.44426314	-107.14976	0.37799054	-79.131225	0.37799054	-79.131225	0.44444529	-107.3774	
7785.807292	0.43682471	-107.81443	0.38326406	-80.384909	0.38326406	-80.384909	0.43702759	-108.0415	
7787.434896	0.42936463	-108.46491	0.38854404	-81.64467	0.38854404	-81.64467	0.4295776	-108.69181	
7789.0625	0.42189231	-109.10277	0.39381147	-82.909776	0.39381147	-82.909776	0.42210489	-109.32995	
7792.317708	0.40688607	-110.33404	0.40434103	-85.455826	0.40434103	-85.455826	0.4071171	-110.5623	
7795.572917	0.39186715	-111.50003	0.41482745	-88.020906	0.41482745	-88.020906	0.39211832	-111.72761	
7798.828125	0.37688619	-112.59414	0.42524352	-90.602593	0.42524352	-90.602593	0.37715309	-112.82098	
7802.083334	0.36199327	-113.60282	0.43556859	-93.19867	0.43556859	-93.19867	0.3622795	-113.83178	
7805.338542	0.34724058	-114.52207	0.44577749	-95.806896	0.44577749	-95.806896	0.34754733	-114.75108	
7808.59375	0.33269587	-115.33807	0.45584906	-98.4248	0.45584906	-98.4248	0.33301422	-115.56935	
7811.848959	0.31840239	-116.04437	0.46576512	-101.04998	0.46576512	-101.04998	0.31874659	-116.27646	
7815.104167	0.3044319	-116.62902	0.47550761	-103.67912	0.47550761	-103.67912	0.30478912	-116.86266	
7818.359375	0.29083932	-117.08222	0.4850658	-106.31208	0.4850658	-106.31208	0.29121935	-117.31824	
7821.614584	0.27767285	-117.39652	0.49442273	-108.94507	0.49442273	-108.94507	0.27807223	-117.63494	
7824.869792	0.2650006	-117.56006	0.50355578	-111.5766	0.50355578	-111.5766	0.26542525	-117.80469	
7828.125	0.25286673	-117.57133	0.51246299	-114.20486	0.51246299	-114.20486	0.25330425	-117.81848	
7831.380209	0.24132983	-117.41874	0.52114339	-116.82564	0.52114339	-116.82564	0.24178648	-117.67256	
7834.635417	0.230419	-117.10106	0.52957748	-119.44079	0.52957748	-119.44079	0.23090535	-117.36295	
7837.890625	0.22020271	-116.62044	0.53776779	-122.0448	0.53776779	-122.0448	0.22069228	-116.89015	
7841.145834	0.2106845	-115.9764	0.54571135	-124.63971	0.54571135	-124.63971	0.21118896	-116.2559	
7844.401042	0.20190062	-115.17676	0.55341236	-127.22046	0.55341236	-127.22046	0.20240929	-115.46819	
7847.65625	0.1938622	-114.23287	0.56086174	-129.78896	0.56086174	-129.78896	0.19438419	-114.53699	
7850.911459	0.18657637	-113.16016	0.56807124	-132.34242	0.56807124	-132.34242	0.18710104	-113.47918	
7854.166667	0.18003435	-111.9787	0.57504169	-134.88093	0.57504169	-134.88093	0.18056027	-112.31348	
7859.592014	0.17074501	-109.83039	0.58614571	-139.07459	0.58614571	-139.07459	0.17126809	-110.1941	
7865.017361	0.16332697	-107.56719	0.59662673	-143.21961	0.59662673	-143.21961	0.16383559	-107.9625	
7870.442709	0.15755628	-105.31664	0.60654159	-147.31551	0.60654159	-147.31551	0.15802962	-105.74524	
7875.868056	0.15314376	-103.19596	0.61590368	-151.36059	0.61590368	-151.36059	0.1535915	-103.65534	
7881.293403	0.14980057	-101.29343	0.62476356	-155.35431	0.62476356	-155.35431	0.15020517	-101.7831	
7886.71875	0.1472214	-99.669109	0.63317242	-159.29812	0.63317242	-159.29812	0.14757615	-100.1864	
7892.144098	0.14510858	-98.35095	0.64115092	-163.19188	0.64115092	-163.19188	0.14541808	-98.892946	
7897.569445	0.14323333	-97.338763	0.64875126	-167.03782	0.64875126	-167.03782	0.14348312	-97.904042	
7902.994792	0.14138126	-96.615112	0.65600039	-170.83735	0.65600039	-170.83735	0.14157659	-97.200713	
7908.420139	0.13939165	-96.14782	0.66292064	-174.59213	0.66292064	-174.59213	0.13953793	-96.752512	
7913.845486	0.13714591	-95.897658	0.66956306	-178.30474	0.66956306	-178.30474	0.13723792	-96.521105	
7919.270834	0.13456401	-95.821596	0.6759223	178.0231	0.6759223	178.0231	0.13460529	-96.462408	
7924.696181	0.13159102	-95.874361	0.68204759	174.3893	0.68204759	174.3893	0.13157439	-96.533028	
7930.121528	0.12819458	-96.009895	0.68793435	170.79222	0.68793435	170.79222	0.12813151	-96.686404	
7935.546875	0.12437321	-96.181823	0.69360769	167.22946	0.69360769	167.22946	0.12425383	-96.876562	
7940.972223	0.12014519	-96.341719	0.69907298	163.69885	0.69907298	163.69885	0.11995842	-97.055702	
7946.39757	0.11551884	-96.439549	0.70435396	160.19926	0.70435396	160.19926	0.11529219	-97.17248	
7951.822917	0.11056327	-96.419624	0.70943741	156.72856	0.70943741	156.72856	0.110273	-97.172835	
7957.248264	0.10532075	-96.223764	0.71434562	153.28645	0.71434562	153.28645	0.1049618	-96.997456	
