!Mini-Circuits Lab.
!S-parameters
!MODEL: TCBT-123+;
!S/N: Unit 1
!Run: MHU0690; Date Code:1624;
!Created: 08-11-2016 at 12:22:48
!Connection: Port 1 to RF & DC (pin 1), Port 2 to RF( pin 2), Port 3 to DC (pin 3), pin 4- not used;
!Tested with PNA-x Network Analyzer N5242, S/N 74302, Cal.Due: 03/23/17; TEST BOARD -TB-879+ ;
# MHZ S DB R 50

!Frequency        S11 dB  S11 DEG   S12 dB  S12 DEG   S13 dB  S13 DEG
!                 S21 dB  S21 DEG   S22 dB  S22 DEG   S23 dB  S23 DEG
!                 S31 dB  S31 DEG   S32 dB  S32 DEG   S33 dB  S33 DEG
  10.0000     -1.836346E+001  7.640514E+001 -1.971319E-001  2.215677E+001 -3.592983E+001 -1.699155E+002
              -1.973741E-001  2.218779E+001 -1.780478E+001  1.564529E+002 -3.610890E+001 -1.499174E+002
              -3.577882E+001 -1.690435E+002 -3.616030E+001 -1.493588E+002 -5.014063E-002 -1.782240E+002
  20.0000     -2.573910E+001  7.993037E+001 -1.270885E-001  1.086767E+001 -4.806356E+001 -1.708051E+002
              -1.263376E-001  1.086776E+001 -2.537989E+001  1.306112E+002 -4.814595E+001 -1.579610E+002
              -4.824986E+001 -1.710794E+002 -4.819958E+001 -1.580305E+002 -7.069510E-002 -1.789576E+002
  30.0000     -2.920305E+001  8.445132E+001 -1.101849E-001  7.161957E+000 -5.526372E+001 -1.727047E+002
              -1.119650E-001  7.156064E+000 -2.884370E+001  1.212578E+002 -5.497952E+001 -1.561103E+002
              -5.523856E+001 -1.721927E+002 -5.506804E+001 -1.560999E+002 -7.331571E-002 -1.792703E+002
  40.0000     -3.125481E+001  8.435496E+001 -1.047839E-001  5.281000E+000 -6.063293E+001 -1.730178E+002
              -1.047697E-001  5.285731E+000 -3.110652E+001  1.160208E+002 -6.002947E+001 -1.518485E+002
              -6.089939E+001 -1.744534E+002 -5.977775E+001 -1.509112E+002 -7.621858E-002 -1.793947E+002
  50.0000     -3.271643E+001  8.142703E+001 -9.976401E-002  4.119244E+000 -7.217846E+001  1.360659E+002
              -1.002183E-001  4.082183E+000 -3.255839E+001  1.124344E+002 -6.726871E+001 -1.397577E+002
              -6.319485E+001  1.750005E+002 -6.349329E+001 -1.331387E+002 -8.126864E-002 -1.794701E+002
  60.0000     -3.449165E+001  8.033174E+001 -9.767231E-002  3.353526E+000 -6.826489E+001  1.693615E+002
              -9.484152E-002  3.352774E+000 -3.425628E+001  1.098363E+002 -6.641592E+001 -1.357095E+002
              -6.840237E+001  1.706882E+002 -6.624829E+001 -1.352765E+002 -8.587385E-002 -1.794836E+002
  70.0000     -3.561573E+001  7.970377E+001 -9.606741E-002  2.789600E+000 -7.132486E+001  1.580170E+002
              -9.424997E-002  2.787763E+000 -3.557279E+001  1.068660E+002 -6.784088E+001 -1.248560E+002
              -7.184643E+001  1.546282E+002 -6.783405E+001 -1.243964E+002 -9.431301E-002 -1.794669E+002
  80.0000     -3.648052E+001  7.680931E+001 -9.631862E-002  2.358785E+000 -7.329475E+001  1.391986E+002
              -9.339957E-002  2.360823E+000 -3.654580E+001  1.043231E+002 -6.807436E+001 -1.157850E+002
              -7.257661E+001  1.338734E+002 -6.859099E+001 -1.176371E+002 -1.017872E-001 -1.794149E+002
  90.0000     -3.715436E+001  7.344125E+001 -9.580366E-002  2.003880E+000 -7.164545E+001  1.183220E+002
              -9.314166E-002  2.003689E+000 -3.762315E+001  1.021157E+002 -6.909268E+001 -1.105169E+002
              -7.210607E+001  1.218556E+002 -6.930303E+001 -1.068542E+002 -1.097346E-001 -1.793865E+002
 100.0000     -3.805199E+001  6.995441E+001 -9.599788E-002  1.701071E+000 -7.161554E+001  1.012566E+002
              -9.275781E-002  1.698857E+000 -3.841388E+001  1.008526E+002 -6.902417E+001 -1.004589E+002
              -7.145373E+001  1.085877E+002 -6.861919E+001 -1.033541E+002 -1.154505E-001 -1.793410E+002
 125.0000     -3.917880E+001  6.520056E+001 -9.591181E-002  1.135385E+000 -6.955177E+001  9.374458E+001
              -9.000019E-002  1.132389E+000 -4.031603E+001  9.653912E+001 -6.785590E+001 -9.495255E+001
              -6.936597E+001  9.390575E+001 -6.833938E+001 -9.576050E+001 -1.269720E-001 -1.791944E+002
 150.0000     -4.048727E+001  6.046725E+001 -9.423778E-002  7.497929E-001 -6.779365E+001  8.382652E+001
              -9.217867E-002  7.622109E-001 -4.191562E+001  9.231234E+001 -6.670309E+001 -8.763132E+001
              -6.723797E+001  8.814128E+001 -6.693471E+001 -9.323846E+001 -1.373616E-001 -1.790054E+002
 175.0000     -4.139581E+001  5.328011E+001 -9.376767E-002  4.457688E-001 -6.607449E+001  8.903841E+001
              -9.132192E-002  4.470454E-001 -4.316849E+001  8.573999E+001 -6.600535E+001 -9.127527E+001
              -6.614071E+001  8.670399E+001 -6.577683E+001 -9.008678E+001 -1.486749E-001 -1.787935E+002
 200.0000     -4.218119E+001  4.709566E+001 -9.337573E-002  1.814691E-001 -6.465611E+001  9.043549E+001
              -9.206515E-002  1.776825E-001 -4.403606E+001  8.305340E+001 -6.504341E+001 -9.097940E+001
              -6.470461E+001  9.076560E+001 -6.504217E+001 -9.059286E+001 -1.603909E-001 -1.785777E+002
 225.0000     -4.264803E+001  3.773568E+001 -9.314109E-002 -2.542470E-002 -6.350661E+001  9.078432E+001
              -9.004801E-002 -3.080323E-002 -4.544168E+001  7.735429E+001 -6.425935E+001 -9.157531E+001
              -6.373701E+001  9.094653E+001 -6.410999E+001 -9.174180E+001 -1.714493E-001 -1.783320E+002
 250.0000     -4.300216E+001  3.307093E+001 -9.262098E-002 -2.062577E-001 -6.306987E+001  9.392677E+001
              -9.127986E-002 -2.092484E-001 -4.721305E+001  7.000732E+001 -6.312447E+001 -9.164552E+001
              -6.300227E+001  9.141499E+001 -6.345306E+001 -9.308276E+001 -1.817013E-001 -1.780804E+002
 275.0000     -4.342921E+001  2.594437E+001 -9.237479E-002 -3.851556E-001 -6.185367E+001  9.319489E+001
              -8.976432E-002 -3.802690E-001 -4.956045E+001  5.714041E+001 -6.266174E+001 -9.368474E+001
              -6.171751E+001  9.298419E+001 -6.243477E+001 -9.372379E+001 -1.882088E-001 -1.778588E+002
 300.0000     -4.357393E+001  2.045394E+001 -9.298460E-002 -5.485321E-001 -6.119118E+001  9.461581E+001
              -8.948672E-002 -5.483298E-001 -5.079241E+001  4.172668E+001 -6.191509E+001 -9.539713E+001
              -6.097860E+001  9.347188E+001 -6.163921E+001 -9.396094E+001 -1.939115E-001 -1.776191E+002
 325.0000     -4.394930E+001  1.550249E+001 -9.265393E-002 -6.928393E-001 -6.026852E+001  9.578481E+001
              -8.976439E-002 -6.918675E-001 -5.104406E+001  2.807677E+001 -6.130434E+001 -9.601361E+001
              -6.019576E+001  9.542430E+001 -6.137948E+001 -9.628833E+001 -1.977311E-001 -1.773476E+002
 350.0000     -4.396750E+001  1.035644E+001 -9.265266E-002 -8.291380E-001 -5.961886E+001  9.785383E+001
              -9.117112E-002 -8.234511E-001 -5.105964E+001  1.869105E+001 -6.053079E+001 -9.764555E+001
              -5.955267E+001  9.586694E+001 -6.077240E+001 -9.786875E+001 -2.015186E-001 -1.770704E+002
 375.0000     -4.412694E+001  6.912939E+000 -9.184144E-002 -9.643599E-001 -5.884828E+001  9.655715E+001
              -8.932818E-002 -9.615772E-001 -5.078149E+001  5.086035E+000 -6.022373E+001 -9.851942E+001
              -5.879710E+001  9.750877E+001 -6.010897E+001 -9.837335E+001 -2.052187E-001 -1.768239E+002
 400.0000     -4.429441E+001  1.032182E+000 -9.244198E-002 -1.094689E+000 -5.833120E+001  9.747067E+001
              -8.934902E-002 -1.094497E+000 -4.993655E+001 -7.773247E+000 -5.968679E+001 -9.931995E+001
              -5.827192E+001  9.799158E+001 -5.949619E+001 -9.897418E+001 -2.079677E-001 -1.765970E+002
 425.0000     -4.423105E+001 -5.365224E+000 -9.268867E-002 -1.214374E+000 -5.767734E+001  9.870791E+001
              -9.009130E-002 -1.213779E+000 -4.925721E+001 -1.419467E+001 -5.920246E+001 -9.964569E+001
              -5.769009E+001  9.904508E+001 -5.913398E+001 -1.002560E+002 -2.120519E-001 -1.763608E+002
 450.0000     -4.401827E+001 -1.205363E+001 -9.276899E-002 -1.338573E+000 -5.722304E+001  1.009927E+002
              -8.957575E-002 -1.332627E+000 -4.872791E+001 -2.169273E+001 -5.863132E+001 -1.004708E+002
              -5.718151E+001  1.000946E+002 -5.858364E+001 -1.013468E+002 -2.152219E-001 -1.761239E+002
 475.0000     -4.397247E+001 -1.509830E+001 -9.316012E-002 -1.454538E+000 -5.649839E+001  1.004009E+002
              -9.174059E-002 -1.458474E+000 -4.820238E+001 -2.675264E+001 -5.822527E+001 -1.019309E+002
              -5.656647E+001  1.012674E+002 -5.819421E+001 -1.017225E+002 -2.177807E-001 -1.758906E+002
 500.0000     -4.374031E+001 -2.001533E+001 -9.406210E-002 -1.573319E+000 -5.610496E+001  1.018998E+002
              -9.119813E-002 -1.572079E+000 -4.741841E+001 -3.230630E+001 -5.776837E+001 -1.034736E+002
              -5.608554E+001  1.021139E+002 -5.783899E+001 -1.038554E+002 -2.226935E-001 -1.756474E+002
 525.0000     -4.338686E+001 -2.728746E+001 -9.404729E-002 -1.685418E+000 -5.562088E+001  1.031183E+002
              -9.203399E-002 -1.686553E+000 -4.631635E+001 -3.807071E+001 -5.744550E+001 -1.039321E+002
              -5.560980E+001  1.027506E+002 -5.745437E+001 -1.040048E+002 -2.257086E-001 -1.753975E+002
 550.0000     -4.313411E+001 -3.208306E+001 -9.593252E-002 -1.795553E+000 -5.522622E+001  1.042365E+002
              -9.330349E-002 -1.794962E+000 -4.551429E+001 -3.832864E+001 -5.711563E+001 -1.047291E+002
              -5.518523E+001  1.042806E+002 -5.711143E+001 -1.045445E+002 -2.285358E-001 -1.751450E+002
 575.0000     -4.327921E+001 -3.343685E+001 -9.698252E-002 -1.897297E+000 -5.459223E+001  1.045820E+002
              -9.398472E-002 -1.897082E+000 -4.497116E+001 -3.932548E+001 -5.664859E+001 -1.046215E+002
              -5.468197E+001  1.047394E+002 -5.671115E+001 -1.039951E+002 -2.305931E-001 -1.749213E+002
 600.0000     -4.331615E+001 -3.469289E+001 -9.696724E-002 -2.006118E+000 -5.426579E+001  1.048833E+002
              -9.489270E-002 -2.004502E+000 -4.447062E+001 -3.866638E+001 -5.616304E+001 -1.051889E+002
              -5.428319E+001  1.046399E+002 -5.625275E+001 -1.048343E+002 -2.322522E-001 -1.746892E+002
 625.0000     -4.291262E+001 -3.648732E+001 -9.788071E-002 -2.118350E+000 -5.391647E+001  1.054019E+002
              -9.549207E-002 -2.112697E+000 -4.386409E+001 -4.015952E+001 -5.577506E+001 -1.065925E+002
              -5.392909E+001  1.050957E+002 -5.580655E+001 -1.060374E+002 -2.361065E-001 -1.744562E+002
 650.0000     -4.237909E+001 -3.852269E+001 -9.826910E-002 -2.226482E+000 -5.356974E+001  1.065005E+002
              -9.624706E-002 -2.226504E+000 -4.317710E+001 -4.050005E+001 -5.543483E+001 -1.072005E+002
              -5.362869E+001  1.063996E+002 -5.545774E+001 -1.072343E+002 -2.377003E-001 -1.742251E+002
 675.0000     -4.202932E+001 -3.902141E+001 -1.001000E-001 -2.338659E+000 -5.331138E+001  1.076216E+002
              -9.734447E-002 -2.337555E+000 -4.249764E+001 -3.980431E+001 -5.506160E+001 -1.083694E+002
              -5.326925E+001  1.073035E+002 -5.507397E+001 -1.082450E+002 -2.398952E-001 -1.740066E+002
 700.0000     -4.176585E+001 -3.992887E+001 -1.031247E-001 -2.450444E+000 -5.292307E+001  1.084562E+002
              -1.007909E-001 -2.450620E+000 -4.178630E+001 -3.999258E+001 -5.482244E+001 -1.086064E+002
              -5.293163E+001  1.083514E+002 -5.475459E+001 -1.083825E+002 -2.411551E-001 -1.737719E+002
 725.0000     -4.120058E+001 -4.083786E+001 -1.079109E-001 -2.556775E+000 -5.249818E+001  1.095940E+002
              -1.050738E-001 -2.558068E+000 -4.105121E+001 -4.002138E+001 -5.441877E+001 -1.090492E+002
              -5.255458E+001  1.095698E+002 -5.441590E+001 -1.087507E+002 -2.415907E-001 -1.735304E+002
 750.0000     -4.053196E+001 -4.146416E+001 -1.140687E-001 -2.654693E+000 -5.222965E+001  1.104109E+002
              -1.117624E-001 -2.654139E+000 -3.995159E+001 -3.972778E+001 -5.405193E+001 -1.100915E+002
              -5.220390E+001  1.101062E+002 -5.408142E+001 -1.098091E+002 -2.433831E-001 -1.733105E+002
 775.0000     -3.951325E+001 -4.234260E+001 -1.225440E-001 -2.732334E+000 -5.188729E+001  1.111557E+002
              -1.197413E-001 -2.727285E+000 -3.877524E+001 -3.974828E+001 -5.372211E+001 -1.107541E+002
              -5.187722E+001  1.113037E+002 -5.374737E+001 -1.108023E+002 -2.466883E-001 -1.731138E+002
 800.0000     -3.846312E+001 -4.485646E+001 -1.288728E-001 -2.770242E+000 -5.153622E+001  1.123109E+002
              -1.267198E-001 -2.769749E+000 -3.761495E+001 -4.202443E+001 -5.348423E+001 -1.113588E+002
              -5.155670E+001  1.117470E+002 -5.347602E+001 -1.113483E+002 -2.493908E-001 -1.729122E+002
 825.0000     -3.769770E+001 -5.069244E+001 -1.298015E-001 -2.791793E+000 -5.120804E+001  1.130151E+002
              -1.278324E-001 -2.793213E+000 -3.677725E+001 -4.704554E+001 -5.319246E+001 -1.115535E+002
              -5.123303E+001  1.129389E+002 -5.318898E+001 -1.119984E+002 -2.507002E-001 -1.726997E+002
 850.0000     -3.729736E+001 -5.644147E+001 -1.258993E-001 -2.834671E+000 -5.088230E+001  1.139763E+002
              -1.233229E-001 -2.832469E+000 -3.638619E+001 -5.233710E+001 -5.284600E+001 -1.124580E+002
              -5.088648E+001  1.140815E+002 -5.281922E+001 -1.124608E+002 -2.520103E-001 -1.724941E+002
 875.0000     -3.714391E+001 -6.089595E+001 -1.207311E-001 -2.907804E+000 -5.055399E+001  1.148113E+002
              -1.177100E-001 -2.905380E+000 -3.625499E+001 -5.561664E+001 -5.256585E+001 -1.132299E+002
              -5.056628E+001  1.147381E+002 -5.249757E+001 -1.130462E+002 -2.545156E-001 -1.723049E+002
 900.0000     -3.712963E+001 -6.478619E+001 -1.156949E-001 -2.999545E+000 -5.028469E+001  1.154126E+002
              -1.137926E-001 -2.998493E+000 -3.613407E+001 -5.739021E+001 -5.222865E+001 -1.140473E+002
              -5.026099E+001  1.155971E+002 -5.219956E+001 -1.139351E+002 -2.567311E-001 -1.721296E+002
 925.0000     -3.714759E+001 -6.840463E+001 -1.133602E-001 -3.096976E+000 -4.999996E+001  1.165807E+002
              -1.106942E-001 -3.098315E+000 -3.604440E+001 -5.871035E+001 -5.203196E+001 -1.145006E+002
              -5.000751E+001  1.165069E+002 -5.201408E+001 -1.147732E+002 -2.577375E-001 -1.719305E+002
 950.0000     -3.701723E+001 -7.106048E+001 -1.118025E-001 -3.197011E+000 -4.973812E+001  1.175720E+002
              -1.087475E-001 -3.198715E+000 -3.573302E+001 -6.086264E+001 -5.180193E+001 -1.148696E+002
              -4.975043E+001  1.176935E+002 -5.182008E+001 -1.146880E+002 -2.580546E-001 -1.717104E+002
 975.0000     -3.682730E+001 -7.228549E+001 -1.106882E-001 -3.293170E+000 -4.939983E+001  1.189986E+002
              -1.093446E-001 -3.292644E+000 -3.557295E+001 -6.193299E+001 -5.154803E+001 -1.151373E+002
              -4.936152E+001  1.188314E+002 -5.156256E+001 -1.150519E+002 -2.602245E-001 -1.715025E+002
1000.0000     -3.672538E+001 -7.354579E+001 -1.111878E-001 -3.386736E+000 -4.904189E+001  1.201166E+002
              -1.094297E-001 -3.382754E+000 -3.541687E+001 -6.175568E+001 -5.131142E+001 -1.153323E+002
              -4.902687E+001  1.199680E+002 -5.125904E+001 -1.155052E+002 -2.621636E-001 -1.713294E+002
1025.0000     -3.665995E+001 -7.387516E+001 -1.128281E-001 -3.479732E+000 -4.875449E+001  1.210357E+002
              -1.108392E-001 -3.479872E+000 -3.520500E+001 -6.149971E+001 -5.098788E+001 -1.153996E+002
              -4.870390E+001  1.210625E+002 -5.101968E+001 -1.154989E+002 -2.650440E-001 -1.711794E+002
1050.0000     -3.638018E+001 -7.464619E+001 -1.144121E-001 -3.570832E+000 -4.838047E+001  1.222908E+002
              -1.128250E-001 -3.571316E+000 -3.487923E+001 -6.091928E+001 -5.078453E+001 -1.154537E+002
              -4.838667E+001  1.221261E+002 -5.076449E+001 -1.154890E+002 -2.660550E-001 -1.710083E+002
1075.0000     -3.601524E+001 -7.551386E+001 -1.167008E-001 -3.656508E+000 -4.799595E+001  1.234169E+002
              -1.149906E-001 -3.658406E+000 -3.455526E+001 -6.195068E+001 -5.047691E+001 -1.152102E+002
              -4.799138E+001  1.234418E+002 -5.043879E+001 -1.152966E+002 -2.667957E-001 -1.708295E+002
1100.0000     -3.568475E+001 -7.594633E+001 -1.182064E-001 -3.734166E+000 -4.755736E+001  1.241344E+002
              -1.162201E-001 -3.737251E+000 -3.421839E+001 -6.287447E+001 -5.012160E+001 -1.150391E+002
              -4.757917E+001  1.241433E+002 -5.013293E+001 -1.148982E+002 -2.688471E-001 -1.706665E+002
1125.0000     -3.539812E+001 -7.748097E+001 -1.189469E-001 -3.810579E+000 -4.715144E+001  1.245848E+002
              -1.173978E-001 -3.811629E+000 -3.396999E+001 -6.358291E+001 -4.972100E+001 -1.147426E+002
              -4.712741E+001  1.246291E+002 -4.973613E+001 -1.149415E+002 -2.709070E-001 -1.705245E+002
1150.0000     -3.505022E+001 -7.869945E+001 -1.193178E-001 -3.884047E+000 -4.674919E+001  1.247724E+002
              -1.173786E-001 -3.885201E+000 -3.360559E+001 -6.439572E+001 -4.929792E+001 -1.152518E+002
              -4.675547E+001  1.247543E+002 -4.928704E+001 -1.151037E+002 -2.723385E-001 -1.703686E+002
1175.0000     -3.468013E+001 -8.042078E+001 -1.192327E-001 -3.958165E+000 -4.638643E+001  1.248004E+002
              -1.171128E-001 -3.961758E+000 -3.333466E+001 -6.553790E+001 -4.887535E+001 -1.160126E+002
              -4.639129E+001  1.247744E+002 -4.887123E+001 -1.156851E+002 -2.735656E-001 -1.701979E+002
1200.0000     -3.429875E+001 -8.165789E+001 -1.183957E-001 -4.036725E+000 -4.608988E+001  1.247075E+002
              -1.170774E-001 -4.039521E+000 -3.308373E+001 -6.706313E+001 -4.849186E+001 -1.168359E+002
              -4.606031E+001  1.246623E+002 -4.848126E+001 -1.167641E+002 -2.772362E-001 -1.700440E+002
1225.0000     -3.403752E+001 -8.215885E+001 -1.181754E-001 -4.114160E+000 -4.575941E+001  1.246821E+002
              -1.158915E-001 -4.112722E+000 -3.291683E+001 -6.719730E+001 -4.814178E+001 -1.176909E+002
              -4.577686E+001  1.247284E+002 -4.813601E+001 -1.177281E+002 -2.794622E-001 -1.699208E+002
1250.0000     -3.385817E+001 -8.361740E+001 -1.170190E-001 -4.198353E+000 -4.548135E+001  1.247697E+002
              -1.155592E-001 -4.195507E+000 -3.269932E+001 -6.774225E+001 -4.780550E+001 -1.187510E+002
              -4.547297E+001  1.247924E+002 -4.778144E+001 -1.187492E+002 -2.819239E-001 -1.698087E+002
1275.0000     -3.361465E+001 -8.525300E+001 -1.161429E-001 -4.286277E+000 -4.521106E+001  1.246292E+002
              -1.142712E-001 -4.285336E+000 -3.249985E+001 -6.801295E+001 -4.743699E+001 -1.199577E+002
              -4.520348E+001  1.245028E+002 -4.742816E+001 -1.197686E+002 -2.828643E-001 -1.696796E+002
1300.0000     -3.334909E+001 -8.643192E+001 -1.160714E-001 -4.372697E+000 -4.494775E+001  1.246280E+002
              -1.135057E-001 -4.372894E+000 -3.239112E+001 -6.876846E+001 -4.712067E+001 -1.211244E+002
              -4.497755E+001  1.244573E+002 -4.712631E+001 -1.211044E+002 -2.821067E-001 -1.695331E+002
1325.0000     -3.312122E+001 -8.739827E+001 -1.169730E-001 -4.448701E+000 -4.474714E+001  1.247157E+002
              -1.140114E-001 -4.448340E+000 -3.218925E+001 -6.912282E+001 -4.685067E+001 -1.222848E+002
              -4.474987E+001  1.247304E+002 -4.684757E+001 -1.223480E+002 -2.840740E-001 -1.693964E+002
1350.0000     -3.292802E+001 -8.812695E+001 -1.170780E-001 -4.520699E+000 -4.451932E+001  1.250235E+002
              -1.152293E-001 -4.518348E+000 -3.193264E+001 -6.944386E+001 -4.661889E+001 -1.233930E+002
              -4.452821E+001  1.249671E+002 -4.659765E+001 -1.235071E+002 -2.861786E-001 -1.692910E+002
1375.0000     -3.269551E+001 -8.961327E+001 -1.174956E-001 -4.610406E+000 -4.428386E+001  1.252346E+002
              -1.157826E-001 -4.606746E+000 -3.165851E+001 -6.956918E+001 -4.635997E+001 -1.244057E+002
              -4.428535E+001  1.253401E+002 -4.633926E+001 -1.243319E+002 -2.890301E-001 -1.691901E+002
1400.0000     -3.235981E+001 -9.079278E+001 -1.179776E-001 -4.694887E+000 -4.402616E+001  1.255669E+002
              -1.154327E-001 -4.694832E+000 -3.140336E+001 -7.021787E+001 -4.608232E+001 -1.253011E+002
              -4.403930E+001  1.254890E+002 -4.609146E+001 -1.252837E+002 -2.916813E-001 -1.690893E+002
