!Keysight Technologies,N5244A,MY52442000,A.10.40.14
!Date: Tuesday, July 07, 2020 10:56:32
!Correction: S11(Full 2 Port(1,2)) 
!S21(Full 2 Port(1,2)) 
!S12(Full 2 Port(1,2)) 
!S22(Full 2 Port(1,2)) 
!S2P File: Measurements: S11, S21, S12, S22:
# Hz S  dB   R 50
10000000 -1.0499721 177.96231 -57.188389 -43.941536 -57.796162 -156.22055 -26.303116 176.74107
20000000 -1.0925982 176.60217 -67.206787 -167.68617 -77.978508 136.59428 -26.871674 173.94577
30000000 -1.12602 175.17894 -62.973076 153.90425 -63.542725 162.88124 -26.812462 172.00182
40000000 -1.1311508 173.78598 -61.233376 -175.68753 -61.641869 44.166649 -26.750381 168.77437
50000000 -1.1429083 172.39978 -81.21138 63.739437 -64.418617 140.99191 -26.613194 166.2494
60000000 -1.1410018 170.97493 -68.827599 -40.426567 -62.393761 121.33438 -26.583351 164.06792
70000000 -1.1546031 169.43178 -64.158455 -86.500938 -63.067799 113.69922 -26.654274 161.52464
80000000 -1.1607325 168.06056 -66.920555 10.544811 -73.288315 -54.460239 -26.537449 158.72055
90000000 -1.1557328 166.58754 -68.646118 108.92625 -81.568031 146.43666 -26.534788 156.92253
100000000 -1.1651567 165.10341 -69.038521 -158.02692 -64.020302 -35.65554 -26.578012 154.61514
500000000 -1.3042948 108.68941 -48.357063 52.452873 -81.082558 -96.791573 -23.506149 82.723312
1000000000 -1.3430912 40.008377 -28.075535 9.5165558 -77.840752 16.546793 -19.465357 20.289843
1500000000 -1.4344399 -28.50285 -12.443604 -42.833271 -71.975189 140.63136 -16.592096 -34.89941
2000000000 -2.4750741 -95.502159 -0.26071638 -137.77849 -69.362007 -58.950768 -14.447425 -92.052383
2500000000 -3.043262 -161.07841 5.7254281 146.90424 -63.162117 -159.03789 -12.194067 -155.09566
3000000000 -3.8732233 128.40276 12.926122 72.712753 -63.395794 134.15749 -9.8469906 131.58797
3500000000 -5.1305437 54.911091 19.221075 -16.191189 -63.303093 20.21365 -8.1393261 49.595707
4000000000 -6.8021617 -15.950259 22.760458 -112.09688 -73.295601 -116.86093 -7.9991379 -28.781277
4200000000 -7.4753652 -42.046619 23.466366 -149.34856 -65.879036 -175.57826 -8.1930161 -56.791485
4400000000 -8.0710125 -66.212601 23.904991 174.59805 -66.294525 147.37421 -8.3917398 -82.876137
4600000000 -8.5237379 -88.850662 24.109486 139.78465 -71.562782 114.6335 -8.6028395 -107.68578
4800000000 -8.7665939 -109.99006 24.169458 106.32841 -69.558548 84.472282 -8.8045063 -131.4366
5000000000 -8.8507042 -130.39879 24.120625 74.245171 -67.772217 91.551285 -9.0113983 -154.05336
5200000000 -8.7846384 -150.55786 24.001579 43.33289 -69.843491 35.720043 -9.253149 -176.00975
5400000000 -8.6434708 -170.64908 23.866463 13.553602 -83.358963 147.72917 -9.5058651 162.97209
5600000000 -8.5036001 169.0594 23.719425 -15.378584 -65.970551 11.221153 -9.8062458 142.37305
5800000000 -8.3728704 148.75053 23.597067 -43.521847 -65.650101 25.733206 -10.13167 122.35302
6000000000 -8.2949667 128.31891 23.499294 -71.064117 -65.156067 -61.801384 -10.504081 102.79594
6200000000 -8.2888832 107.78851 23.436817 -98.16658 -66.983612 -38.151287 -10.888314 83.317894
6400000000 -8.3583822 87.294258 23.401876 -124.92771 -68.66275 -53.096706 -11.296978 64.111977
6600000000 -8.5023947 66.581207 23.408388 -151.44038 -70.301346 -103.5235 -11.753317 44.848274
6800000000 -8.7400875 45.724174 23.428957 -177.82454 -62.816063 -129.49519 -12.22701 25.329256
7000000000 -9.0571918 24.566204 23.470867 155.87834 -62.642479 -122.77779 -12.701675 5.5318036
7200000000 -9.4471655 3.0429521 23.534756 129.65622 -63.430153 -164.5327 -13.173839 -14.680559
7400000000 -9.912755 -18.978745 23.595745 103.38139 -61.993988 -174.79028 -13.660315 -35.338928
7600000000 -10.435207 -41.464493 23.660067 77.157059 -62.39278 153.51187 -14.12966 -56.792778
7800000000 -10.998237 -64.669449 23.722197 50.906658 -59.972439 129.40788 -14.517824 -78.937347
8000000000 -11.541436 -88.41243 23.756361 24.655209 -60.844063 128.94855 -14.782265 -101.61613
8200000000 -12.061639 -112.24161 23.792812 -1.5011678 -60.272972 79.285484 -15.012006 -124.49268
8400000000 -12.491302 -136.11432 23.809498 -27.591131 -57.250381 49.102657 -15.057983 -147.43173
8600000000 -12.863957 -159.86227 23.809008 -53.608086 -58.164616 25.937479 -15.032587 -170.26436
8800000000 -13.106359 176.99641 23.80114 -79.518272 -57.482761 5.0085979 -14.889392 167.6624
9000000000 -13.276738 154.85265 23.785452 -105.24345 -58.462948 -5.1482549 -14.684173 146.23315
9200000000 -13.343669 133.74591 23.76046 -130.9183 -57.50119 -36.723766 -14.447841 125.86331
9400000000 -13.341437 113.67365 23.731401 -156.4693 -57.798229 -41.790745 -14.213995 106.00344
9600000000 -13.30652 95.066452 23.702715 178.08946 -56.036777 -79.781609 -14.052401 87.243492
9800000000 -13.231385 77.342522 23.676403 152.75558 -56.171623 -99.968735 -13.944525 69.078415
10000000000 -13.159097 60.504642 23.655977 127.52256 -57.682388 -131.08487 -13.935635 51.282951
10200000000 -13.048248 44.234386 23.646479 102.32089 -57.190323 -141.54092 -13.994148 34.117172
10400000000 -12.90146 28.227901 23.624044 77.217278 -55.942272 -177.34569 -14.137805 16.883949
10600000000 -12.739059 12.445143 23.623219 52.184277 -57.250172 172.42657 -14.383482 0.18992783
10800000000 -12.579373 -3.2315402 23.616508 27.149323 -57.795315 144.54768 -14.732642 -16.399035
11000000000 -12.432551 -18.651588 23.619999 2.1783149 -57.573479 122.02448 -15.186958 -32.670708
11200000000 -12.28438 -34.200649 23.62545 -22.779396 -58.682411 95.622894 -15.752645 -48.507946
11400000000 -12.18704 -49.88533 23.638494 -47.716793 -56.674095 70.794075 -16.463373 -63.792931
11600000000 -12.091352 -65.795448 23.652472 -72.625038 -58.519123 53.173782 -17.28266 -78.535469
11800000000 -12.0307 -82.180061 23.6721 -97.505981 -57.795147 32.955482 -18.218639 -92.323463
12000000000 -11.982399 -98.926483 23.701332 -122.43747 -58.123398 14.414614 -19.311003 -105.49147
12200000000 -12.030234 -115.83987 23.73138 -147.30223 -57.328163 2.1797931 -20.361057 -117.5061
12400000000 -12.074465 -133.38176 23.773069 -172.19147 -58.065144 -34.370911 -21.425722 -128.92424
12600000000 -12.163795 -151.3584 23.822598 162.88809 -58.739243 -49.539219 -22.356934 -139.27332
12800000000 -12.349549 -169.88078 23.87302 137.98026 -59.422504 -77.232758 -23.199903 -148.82666
13000000000 -12.574332 170.95044 23.941614 113.05849 -59.642078 -98.355194 -23.79781 -158.93311
13200000000 -12.856998 150.4277 24.006769 88.063721 -59.233467 -111.85596 -24.270014 -170.00575
13400000000 -13.197576 128.91754 24.089712 62.98325 -58.118443 -133.59996 -24.856697 176.3857
13600000000 -13.520103 106.74094 24.153761 37.902821 -58.640785 -146.44992 -25.229671 162.31927
13800000000 -13.843934 82.817741 24.241999 12.654246 -58.698254 178.13466 -26.021145 142.94043
14000000000 -14.163938 57.613617 24.306829 -12.698024 -62.60363 156.62335 -27.018723 122.03322
14200000000 -14.294765 31.91868 24.374315 -38.04184 -59.45155 149.43132 -27.938202 97.100655
14400000000 -14.163245 5.6045656 24.442247 -63.430382 -61.848606 129.92723 -28.616581 65.616486
14600000000 -13.873791 -21.06609 24.49646 -88.917679 -59.343067 101.62965 -28.408415 28.363981
14800000000 -13.429855 -47.021839 24.55476 -114.42778 -59.014713 88.053207 -27.005999 -6.9393573
15000000000 -12.90348 -71.945786 24.598991 -139.94092 -59.840584 61.545502 -25.276052 -37.561726
15200000000 -12.364359 -95.848877 24.632423 -165.42276 -57.630486 43.276371 -23.52594 -63.133331
15400000000 -11.915875 -118.92096 24.669479 169.17261 -58.015205 21.007164 -22.019638 -85.440712
15600000000 -11.540854 -140.99738 24.720921 143.84833 -60.332417 -8.7795744 -20.875914 -105.23005
15800000000 -11.271729 -162.33955 24.797712 118.61376 -57.543541 -26.090963 -19.989037 -123.49297
16000000000 -11.176882 176.74168 24.891911 93.373253 -58.218025 -50.348167 -19.430248 -139.50949
16200000000 -11.231153 155.98886 25.033342 68.000572 -60.876904 -67.042068 -19.001293 -154.91277
16400000000 -11.448652 135.00414 25.210268 42.535538 -58.041897 -99.127937 -18.760351 -168.82202
16600000000 -11.886442 113.21286 25.436609 16.793932 -58.719318 -126.4334 -18.809372 178.04996
16800000000 -12.554773 89.814499 25.696777 -9.3610163 -58.062851 -139.37207 -19.111225 166.33498
17000000000 -13.458541 63.552185 25.986286 -35.98082 -57.977676 -169.36491 -19.595438 156.15869
17200000000 -14.531581 32.222416 26.298687 -63.236576 -59.258919 152.07152 -20.310324 149.46161
17400000000 -15.373803 -6.222611 26.591385 -91.229614 -58.642815 114.80911 -21.256208 147.38974
17600000000 -15.19329 -50.974304 26.829378 -119.94115 -58.274731 99.352882 -21.68672 152.6963
17800000000 -13.681324 -94.498161 26.998524 -149.30388 -57.985012 58.957634 -20.700644 160.56425
18000000000 -11.515121 -131.7171 27.055304 -179.20119 -57.290119 37.121506 -18.482822 161.20534
18200000000 -9.4763508 -163.65894 26.985672 150.58646 -57.072739 2.0671072 -16.202227 155.20418
18400000000 -7.8128257 167.89079 26.781155 120.34464 -58.616001 -21.209084 -14.291539 143.79407
18600000000 -6.590323 141.17281 26.465242 90.183945 -57.543003 -57.70982 -12.774046 129.8978
18800000000 -5.6968441 116.07192 26.046259 60.509403 -58.977066 -89.725105 -11.718588 114.05166
19000000000 -5.1145854 91.59333 25.581398 31.077429 -61.132915 -124.13343 -10.97723 96.596977
19200000000 -4.7701216 67.520683 25.087645 1.9932516 -57.818211 -162.11861 -10.553596 78.552589
19400000000 -4.6563697 43.479729 24.554489 -26.912128 -58.554348 175.33861 -10.381384 59.843727
19600000000 -4.6765966 19.229149 24.015438 -55.834625 -58.401413 125.00525 -10.384336 40.492825
19800000000 -4.905787 -5.9794579 23.407297 -84.959229 -56.589447 119.24373 -10.577588 20.009142
20000000000 -5.2690687 -31.863249 22.741682 -114.16766 -56.014473 82.87236 -10.950425 -1.4853493
20200000000 -5.7581639 -58.711529 21.964972 -143.38783 -59.581947 49.350491 -11.42381 -24.352743
20400000000 -6.3544607 -86.020851 21.063744 -172.56319 -55.237034 16.866669 -11.965054 -49.251236
20600000000 -6.9892316 -113.59483 20.007568 158.53923 -57.604179 1.6007788 -12.483566 -75.266541
20800000000 -7.6345253 -140.50565 18.759848 130.362 -59.33683 -31.813686 -12.775205 -102.40909
21000000000 -8.2425394 -165.67439 17.317524 103.58795 -60.420792 -58.337158 -12.732526 -130.2274
21200000000 -8.6862688 172.33284 15.756009 79.25032 -58.330059 -94.704575 -12.286905 -157.35715
21400000000 -8.7421741 153.90697 14.339807 58.091106 -58.534203 -102.17886 -11.625972 177.89906
21600000000 -8.1762457 136.73163 13.415066 38.846821 -61.125706 -126.52802 -10.788548 154.81525
21800000000 -7.2598906 118.11674 12.972567 18.540117 -57.962769 -125.65886 -9.930438 133.121
22000000000 -6.3615136 97.862617 12.69641 -4.0474901 -58.113461 -155.65944 -9.1126337 112.92387
22200000000 -5.6491513 76.744102 12.332539 -28.100286 -59.325108 -171.73326 -8.4172602 93.475723
22400000000 -5.170176 55.766262 11.853994 -52.706047 -59.8563 163.85023 -7.8383689 75.218124
22600000000 -4.86443 35.378899 11.287656 -77.198952 -59.286221 154.42546 -7.3679371 57.430164
22800000000 -4.6705122 15.326207 10.680339 -101.49293 -59.665905 123.08744 -6.9992118 40.078266
23000000000 -4.5703568 -4.4814868 10.060515 -125.55392 -58.48394 92.674919 -6.7099686 22.925499
23200000000 -4.5137534 -24.306807 9.4489517 -149.39232 -58.709408 79.262047 -6.5002608 5.7204113
23400000000 -4.5592794 -43.687645 8.8776636 -173.1003 -57.126797 47.270065 -6.3697448 -11.672688
23600000000 -4.5969515 -63.533989 8.2991362 163.1725 -57.141621 20.502163 -6.2421951 -29.238001
23800000000 -4.7025056 -83.364342 7.7589989 139.41438 -58.229286 1.3973402 -6.1753531 -47.153976
24000000000 -4.8448043 -103.81607 7.2189755 115.48036 -59.187225 -20.251846 -6.1677256 -65.19767
24200000000 -5.0105815 -124.33548 6.6606317 91.530357 -59.940742 -45.663761 -6.1783915 -83.900017
24400000000 -5.217453 -145.1396 6.0677843 67.60672 -59.224636 -61.931778 -6.1823144 -103.32956
24600000000 -5.4507461 -166.32907 5.4451327 43.828049 -57.934311 -87.017273 -6.1998491 -123.6532
24800000000 -5.6939869 172.03067 4.7964978 20.518429 -61.401951 -110.46655 -6.2825036 -144.60847
25000000000 -5.9400311 149.89026 4.1633139 -2.1064665 -60.089809 -135.36378 -6.3339109 -166.25298
25200000000 -6.1864133 127.52225 3.6588423 -24.178745 -57.773903 -155.6382 -6.469841 171.19583
25400000000 -6.3987303 105.08434 3.324342 -46.393909 -60.308704 179.9875 -6.6137242 148.62767
25600000000 -6.586494 82.157593 3.0832608 -69.564186 -60.706375 163.0079 -6.771873 126.10127
25800000000 -6.7693152 59.168537 2.8373663 -93.733444 -59.441196 141.88805 -6.9171462 104.11154
26000000000 -6.8780069 36.107533 2.5161428 -118.50328 -58.913467 125.71973 -7.002532 82.121887
