!Keysight Technologies,N5244A,MY52442000,A.10.40.14
!Date: Tuesday, July 07, 2020 10:57:13
!Correction: S11(Full 2 Port(1,2)) 
!S21(Full 2 Port(1,2)) 
!S12(Full 2 Port(1,2)) 
!S22(Full 2 Port(1,2)) 
!S2P File: Measurements: S11, S21, S12, S22:
# Hz S  dB   R 50
10000000 -1.0281545 178.00497 -53.058292 -163.91203 -56.847141 26.205908 -26.531334 176.27133
20000000 -1.0994436 176.60567 -62.390358 -125.23149 -66.306572 -40.597511 -26.373981 174.01645
30000000 -1.1282167 175.20123 -64.866837 98.005234 -74.373886 54.655312 -26.9839 170.13057
40000000 -1.1295273 173.78949 -61.779522 -8.2638855 -64.933846 -56.886364 -26.600414 169.47266
50000000 -1.1367555 172.35539 -63.886761 110.00396 -82.742805 -3.8275547 -26.574083 166.36937
60000000 -1.1456124 170.94998 -78.161575 -106.81631 -63.276989 -144.74431 -26.612534 164.36253
70000000 -1.1538581 169.40242 -80.389633 91.968216 -71.023842 -17.499043 -26.585506 161.15205
80000000 -1.1601013 168.03821 -77.844681 -38.931828 -82.409927 -152.50471 -26.484524 159.10725
90000000 -1.1624643 166.56789 -69.196793 -109.16003 -68.633072 -90.131561 -26.543486 157.12399
100000000 -1.1631709 165.08678 -70.939278 -2.1770725 -74.789444 1.8036927 -26.472143 155.07567
500000000 -1.3071321 108.64588 -46.432987 47.413174 -93.573212 48.676323 -23.503016 82.282043
1000000000 -1.3565003 39.871693 -25.640205 6.7463579 -79.218063 -43.800491 -19.471851 20.144665
1500000000 -1.4679093 -29.108519 -9.9757357 -44.127464 -78.768311 -176.80542 -16.597937 -34.936687
2000000000 -2.7528989 -96.17585 2.2269437 -142.7556 -67.785538 -44.624554 -14.437986 -91.851494
2500000000 -3.3617976 -161.5556 7.7806892 142.76913 -62.979317 -137.79274 -12.137853 -154.72025
3000000000 -4.316843 127.43044 14.828599 69.630592 -65.649796 100.54453 -9.7207279 132.1492
3500000000 -5.7427778 53.075882 21.074961 -18.32513 -65.656052 -7.4495449 -7.8628712 50.032177
4000000000 -7.6611547 -18.879501 24.587196 -113.61761 -80.393158 -30.784834 -7.6385174 -29.313616
4200000000 -8.452158 -45.286179 25.279356 -150.62254 -71.503242 -165.45634 -7.8368011 -57.73048
4400000000 -9.1850367 -69.618317 25.703522 173.59489 -84.152489 -138.10793 -8.0685625 -84.237495
4600000000 -9.782712 -91.902138 25.901716 139.05359 -69.184937 152.5631 -8.3138676 -109.28011
4800000000 -10.164857 -112.272 25.959545 105.8568 -71.382256 150.75366 -8.5523682 -133.27135
5000000000 -10.312005 -131.66168 25.909409 73.993629 -74.871735 33.139137 -8.7941971 -155.99963
5200000000 -10.250386 -150.57602 25.797621 43.277618 -73.166443 59.849342 -9.056572 -178.03023
5400000000 -10.090714 -169.50032 25.663671 13.662811 -71.722466 19.888084 -9.3487463 160.79173
5600000000 -9.8550053 171.14484 25.51778 -15.101081 -73.560471 45.964367 -9.6863079 140.16028
5800000000 -9.644865 151.56812 25.395605 -43.061916 -73.906036 29.024418 -10.033758 120.0423
6000000000 -9.4855824 131.66797 25.29911 -70.445358 -70.770935 -59.181465 -10.434472 100.35957
6200000000 -9.4099712 111.70051 25.239153 -97.355728 -68.372833 -56.779449 -10.845068 80.728668
6400000000 -9.4141808 91.58651 25.209101 -123.92167 -68.263611 -59.575424 -11.301377 61.358383
6600000000 -9.5011606 71.303268 25.218742 -150.23662 -64.423752 -100.58457 -11.782721 42.057751
6800000000 -9.693737 50.764561 25.250681 -176.39388 -62.57021 -123.81528 -12.280098 22.504757
7000000000 -9.9786692 29.878307 25.305471 157.51759 -62.72847 -124.43208 -12.805738 2.6027186
7200000000 -10.353938 8.756279 25.383251 131.50389 -62.074844 -160.92027 -13.318473 -17.715755
7400000000 -10.818449 -13.159818 25.469418 105.44542 -60.212826 -176.77499 -13.840267 -38.48011
7600000000 -11.366067 -35.398178 25.556463 79.416084 -62.551353 154.33626 -14.320603 -60.028328
7800000000 -11.974049 -58.501335 25.649637 53.350376 -61.783615 133.13062 -14.726736 -82.173645
8000000000 -12.579851 -82.158409 25.718191 27.237055 -60.613186 114.28844 -15.017982 -104.82928
8200000000 -13.177585 -106.11871 25.787279 1.2007738 -60.75679 82.072067 -15.225245 -127.83944
8400000000 -13.681456 -130.35367 25.840904 -24.800871 -60.005955 54.138767 -15.250141 -150.73309
8600000000 -14.102284 -154.26508 25.879589 -50.770378 -58.614872 40.925415 -15.195081 -173.2542
8800000000 -14.430218 -177.60564 25.909754 -76.661407 -61.10268 13.157537 -15.034117 164.72694
9000000000 -14.630846 159.93982 25.929892 -102.40981 -58.869846 -5.1937342 -14.836272 143.48232
9200000000 -14.72826 138.82622 25.943106 -128.12048 -58.340195 -28.592083 -14.581523 123.10657
9400000000 -14.745313 119.13772 25.949062 -153.7493 -57.613949 -52.220425 -14.370656 103.49071
9600000000 -14.671251 100.89864 25.953331 -179.29878 -56.272915 -72.079018 -14.1891 84.759613
9800000000 -14.552156 83.781822 25.953266 155.23341 -56.790993 -92.947594 -14.112367 66.697136
10000000000 -14.37729 67.846237 25.958485 129.83759 -59.063248 -136.42645 -14.076941 48.870033
10200000000 -14.121701 52.304062 25.966022 104.46227 -59.034737 -150.07362 -14.144323 31.511833
10400000000 -13.803563 37.146095 25.96336 79.189636 -57.390316 -173.56035 -14.299713 14.311231
10600000000 -13.453349 21.848824 25.971605 53.960888 -58.205189 173.86662 -14.571364 -2.5567875
10800000000 -13.102335 6.5400853 25.975449 28.752548 -57.344421 152.14789 -14.967544 -19.42
11000000000 -12.746966 -8.7221069 25.981131 3.5917668 -58.268181 132.998 -15.48786 -35.933212
11200000000 -12.408878 -24.29211 25.985826 -21.55512 -57.589561 102.68536 -16.178619 -51.914959
11400000000 -12.118857 -40.154026 25.996292 -46.656181 -58.64608 88.786903 -17.012264 -67.597008
11600000000 -11.86625 -56.412094 26.00544 -71.713974 -57.847858 56.126312 -18.02083 -82.434097
11800000000 -11.635639 -73.146111 26.017334 -96.741013 -57.231243 34.166801 -19.261488 -96.183151
12000000000 -11.45338 -90.189774 26.037813 -121.77377 -58.166046 8.3315258 -20.615385 -108.74937
12200000000 -11.368223 -107.7523 26.061495 -146.75648 -57.90823 -11.077544 -22.027422 -119.07352
12400000000 -11.314727 -125.68176 26.095488 -171.74243 -59.020344 -27.984352 -23.466204 -127.31445
12600000000 -11.309011 -144.06041 26.135704 163.25648 -58.271111 -45.382317 -24.589367 -133.11443
12800000000 -11.398045 -162.98415 26.181807 138.27487 -58.276985 -72.509354 -25.327288 -137.21645
13000000000 -11.535223 177.50853 26.2425 113.27855 -59.776859 -91.636459 -25.472185 -142.53867
13200000000 -11.733839 156.85123 26.307602 88.216759 -59.538738 -107.94473 -25.265171 -150.78651
13400000000 -11.993107 135.16202 26.386526 63.03447 -60.39473 -126.06278 -25.20191 -162.04117
13600000000 -12.294367 112.83994 26.450829 37.857746 -60.338795 -153.67731 -25.032667 -175.26283
13800000000 -12.578227 89.124306 26.540043 12.517386 -59.261002 -175.5813 -25.391996 166.46426
14000000000 -12.894852 64.220901 26.59935 -13.002579 -61.121059 157.13271 -26.111801 148.02524
14200000000 -13.044621 38.740345 26.662889 -38.454735 -60.570633 155.60999 -26.891781 125.92608
14400000000 -13.005 12.473851 26.725754 -64.013519 -59.467686 130.42302 -27.873081 98.008827
14600000000 -12.818269 -14.247128 26.776619 -89.657333 -59.656544 120.45759 -28.713907 61.913063
14800000000 -12.463297 -40.622623 26.82126 -115.35798 -58.755379 105.18628 -28.535061 21.7922
15000000000 -12.041698 -66.14093 26.84795 -141.07115 -60.00795 66.075119 -27.01075 -15.722954
15200000000 -11.58152 -90.751663 26.860401 -166.7543 -58.325077 52.585529 -25.202217 -47.009789
15400000000 -11.201876 -114.46932 26.869781 167.67039 -58.76709 20.843384 -23.383852 -72.778152
15600000000 -10.886208 -137.10332 26.887598 142.20222 -59.748013 9.224247 -21.999117 -93.93119
15800000000 -10.662846 -159.01483 26.927961 116.84787 -58.150204 -14.337664 -20.907188 -113.39857
16000000000 -10.60661 179.739 26.990992 91.546928 -59.469757 -40.192081 -20.137651 -129.65543
16200000000 -10.680242 158.58595 27.101681 66.107887 -60.884563 -61.38446 -19.50663 -145.06236
16400000000 -10.911646 137.3391 27.253277 40.570782 -59.925449 -66.147491 -19.050802 -158.97063
16600000000 -11.343322 115.30209 27.450459 14.759103 -59.806396 -103.38115 -18.827486 -171.61734
16800000000 -11.998183 91.664589 27.681396 -11.462156 -60.487358 -139.61337 -18.793081 176.55476
17000000000 -12.905394 65.388512 27.941229 -38.154408 -59.814919 -163.36066 -18.868811 166.65381
17200000000 -14.024606 34.31356 28.216364 -65.492653 -60.998528 165.44171 -19.129862 158.69353
17400000000 -14.96209 -3.9431527 28.473442 -93.552223 -58.882729 135.17628 -19.524891 154.06259
17600000000 -15.018294 -48.919983 28.671062 -122.32748 -64.096138 120.64632 -19.584063 153.20198
17800000000 -13.568204 -93.444962 28.784622 -151.75633 -60.123909 77.030319 -18.960718 154.68846
18000000000 -11.467411 -131.52213 28.778822 178.37329 -62.175777 59.90974 -17.449066 153.13185
18200000000 -9.4344501 -164.07072 28.646866 148.2735 -62.640652 7.6297321 -15.749592 147.06566
18400000000 -7.7932591 167.10529 28.3792 118.18008 -60.951782 -13.323581 -14.209292 136.7601
18600000000 -6.5739331 140.37578 28.001835 88.280113 -61.33009 -73.324905 -12.901178 124.02399
18800000000 -5.7200656 115.16942 27.533203 58.903477 -64.52562 -80.801331 -11.990726 109.19727
19000000000 -5.1416855 90.676498 27.025492 29.805696 -62.535957 -127.49048 -11.303739 92.471458
19200000000 -4.8033442 66.604225 26.498888 1.0810765 -62.961613 -166.23915 -10.93226 75.192535
19400000000 -4.6871967 42.55954 25.943251 -27.481142 -60.417984 -178.11116 -10.792109 56.987156
19600000000 -4.7112741 18.281744 25.389589 -56.050217 -59.883469 151.25105 -10.828998 38.017101
19800000000 -4.9174433 -6.8568997 24.775055 -84.822578 -62.562302 103.74762 -11.023826 17.951513
20000000000 -5.2445216 -32.822842 24.112677 -113.70341 -60.259167 83.194954 -11.401662 -3.3441875
20200000000 -5.7037721 -59.844978 23.344353 -142.64552 -61.315357 57.280659 -11.883402 -26.064224
20400000000 -6.2685752 -87.376732 22.458645 -171.5835 -62.41032 18.157166 -12.408628 -50.852741
20600000000 -6.8658295 -115.23408 21.423326 159.70074 -61.259941 -8.6981306 -12.904579 -77.084862
20800000000 -7.4874368 -142.41626 20.196911 131.64285 -60.005737 -33.558426 -13.137044 -104.29763
21000000000 -8.1073284 -167.98477 18.776268 104.91949 -60.181992 -82.461716 -13.052896 -132.1808
21200000000 -8.6204557 169.7885 17.232088 80.570992 -62.306095 -92.259079 -12.538431 -159.18617
21400000000 -8.7623425 151.5874 15.823355 59.329372 -67.178307 -107.597 -11.825479 176.20439
21600000000 -8.2543488 135.13667 14.893579 40.002804 -63.179203 -116.27296 -10.949064 153.3363
21800000000 -7.3230309 117.14565 14.432602 19.653505 -65.103142 -121.45525 -10.069714 131.97758
22000000000 -6.3829541 97.204506 14.130092 -2.8828435 -62.035915 -143.58594 -9.2283287 111.96791
22200000000 -5.6363835 76.230911 13.743581 -26.823454 -61.012302 -152.52881 -8.5229321 92.714272
22400000000 -5.1356859 55.348236 13.249852 -51.264183 -59.96904 159.04024 -7.946847 74.615517
22600000000 -4.8071828 34.95319 12.672111 -75.573029 -61.704453 142.83984 -7.4555998 56.968227
22800000000 -4.5962334 14.885361 12.06059 -99.693352 -59.75819 120.17802 -7.0858922 39.674706
23000000000 -4.4801116 -4.9477892 11.441811 -123.57811 -58.637615 92.781265 -6.7832537 22.585255
23200000000 -4.4156127 -24.813654 10.831396 -147.25998 -60.721214 67.807228 -6.5729046 5.4298334
23400000000 -4.4529176 -44.295715 10.264479 -170.83618 -57.671822 44.306248 -6.4355965 -11.892082
23600000000 -4.481246 -64.173958 9.6909199 165.58342 -59.031578 25.976788 -6.3120251 -29.453415
23800000000 -4.568821 -84.072701 9.1567106 141.94345 -60.316746 20.893841 -6.230186 -47.360271
24000000000 -4.7048445 -104.66851 8.6218958 118.12955 -59.177593 -12.652761 -6.2299685 -65.393539
24200000000 -4.8619618 -125.2679 8.0721979 94.29483 -61.122051 -39.056206 -6.2350492 -84.062607
24400000000 -5.0542521 -146.19148 7.4873533 70.470619 -60.941193 -67.995277 -6.2370505 -103.44812
24600000000 -5.273653 -167.48369 6.8702927 46.807022 -59.826122 -85.488434 -6.2522759 -123.82742
24800000000 -5.5083232 170.75084 6.2304068 23.593887 -59.325577 -109.117 -6.3353448 -144.78029
25000000000 -5.7406659 148.49039 5.6067772 1.0619045 -60.944447 -141.14087 -6.38273 -166.40541
25200000000 -5.9711905 126.00033 5.1122541 -20.919996 -59.973843 -152.46246 -6.5116515 171.0273
25400000000 -6.1839948 103.44255 4.7885699 -43.068272 -60.082424 -178.10323 -6.6559834 148.37328
25600000000 -6.3486848 80.446228 4.5532303 -66.194527 -59.441536 172.20734 -6.8125482 125.91714
25800000000 -6.5185881 57.358536 4.3148322 -90.308914 -59.628105 145.53029 -6.9548903 103.88332
26000000000 -6.6244779 34.228268 4.0008364 -114.98316 -60.505264 113.68938 -7.0539498 81.917404
