!Mini-Circuits Lab.
!S-parameters
!MODEL: TCBT-123+;
!S/N: Unit 2
!Run: MHU0690; Date Code:1624;
!Created: 08-11-2016 at 12:22:48
!Connection: Port 1 to RF & DC (pin 1), Port 2 to RF( pin 2), Port 3 to DC (pin 3), pin 4- not used;
!Tested with PNA-x Network Analyzer N5242, S/N 74302, Cal.Due: 03/23/17.TEST BOARD -TB-879+ ;
# MHZ S DB R 50

!Frequency        S11 dB  S11 DEG   S12 dB  S12 DEG   S13 dB  S13 DEG
!                 S21 dB  S21 DEG   S22 dB  S22 DEG   S23 dB  S23 DEG
!                 S31 dB  S31 DEG   S32 dB  S32 DEG   S33 dB  S33 DEG
  10.0000     -1.972258E+001  7.205537E+001 -1.677510E-001  2.098414E+001 -3.649519E+001 -1.704538E+002
              -1.687465E-001  2.098226E+001 -1.908049E+001  1.584592E+002 -3.677917E+001 -1.511654E+002
              -3.642706E+001 -1.704294E+002 -3.672844E+001 -1.511779E+002 -5.491072E-002 -1.781943E+002
  20.0000     -2.741495E+001  7.769348E+001 -1.183233E-001  1.029443E+001 -4.857321E+001 -1.715033E+002
              -1.180304E-001  1.029333E+001 -2.686164E+001  1.336371E+002 -4.863821E+001 -1.587670E+002
              -4.862915E+001 -1.711641E+002 -4.873381E+001 -1.594013E+002 -7.936902E-002 -1.789388E+002
  30.0000     -3.084647E+001  8.420492E+001 -1.037320E-001  6.784344E+000 -5.591857E+001 -1.720507E+002
              -1.048764E-001  6.777967E+000 -3.028745E+001  1.240276E+002 -5.551811E+001 -1.576109E+002
              -5.577581E+001 -1.720321E+002 -5.567390E+001 -1.571074E+002 -8.388991E-002 -1.792349E+002
  40.0000     -3.278152E+001  8.486874E+001 -9.770106E-002  4.998168E+000 -6.119042E+001 -1.725567E+002
              -9.834528E-002  5.002024E+000 -3.246529E+001  1.185435E+002 -6.053509E+001 -1.534231E+002
              -6.107579E+001 -1.732180E+002 -6.045301E+001 -1.535465E+002 -8.750941E-002 -1.793334E+002
  50.0000     -3.399178E+001  7.984918E+001 -9.896681E-002  3.890060E+000 -7.646146E+001  1.456463E+002
              -8.925366E-002  3.868768E+000 -3.372943E+001  1.157484E+002 -6.728378E+001 -1.350305E+002
              -6.743265E+001  1.703984E+002 -6.219231E+001 -1.444733E+002 -9.237751E-002 -1.793842E+002
  60.0000     -3.584004E+001  8.134128E+001 -9.121811E-002  3.155449E+000 -6.890857E+001  1.683534E+002
              -8.891827E-002  3.155936E+000 -3.539565E+001  1.120658E+002 -6.618598E+001 -1.364465E+002
              -6.918951E+001  1.703375E+002 -6.673793E+001 -1.357243E+002 -9.645671E-002 -1.793757E+002
  70.0000     -3.684768E+001  8.112116E+001 -9.023783E-002  2.619103E+000 -7.177505E+001  1.581429E+002
              -8.840691E-002  2.613185E+000 -3.659736E+001  1.086440E+002 -6.801048E+001 -1.264436E+002
              -7.140553E+001  1.537376E+002 -6.791132E+001 -1.275288E+002 -1.036042E-001 -1.793381E+002
  80.0000     -3.757642E+001  7.817178E+001 -9.060967E-002  2.201785E+000 -7.340970E+001  1.402656E+002
              -8.849242E-002  2.201662E+000 -3.747622E+001  1.052856E+002 -6.854704E+001 -1.151573E+002
              -7.190228E+001  1.384940E+002 -6.918540E+001 -1.183318E+002 -1.101100E-001 -1.792654E+002
  90.0000     -3.806306E+001  7.459989E+001 -9.119561E-002  1.859415E+000 -7.143884E+001  1.210838E+002
              -8.812076E-002  1.861341E+000 -3.847954E+001  1.030789E+002 -6.958500E+001 -1.119337E+002
              -7.270450E+001  1.204389E+002 -6.885300E+001 -1.108630E+002 -1.169000E-001 -1.792224E+002
 100.0000     -3.890278E+001  7.075161E+001 -9.156358E-002  1.570917E+000 -7.155299E+001  9.834683E+001
              -8.886728E-002  1.569066E+000 -3.910328E+001  1.018508E+002 -6.952094E+001 -1.025832E+002
              -7.199584E+001  1.087276E+002 -6.938931E+001 -1.058362E+002 -1.215529E-001 -1.791602E+002
 125.0000     -3.971940E+001  6.649969E+001 -9.132379E-002  1.013989E+000 -6.948370E+001  9.705573E+001
              -8.807939E-002  1.040423E+000 -4.065188E+001  9.695786E+001 -6.817258E+001 -9.638147E+001
              -6.962850E+001  9.671629E+001 -6.821208E+001 -9.723698E+001 -1.293337E-001 -1.789856E+002
 150.0000     -4.079798E+001  6.207934E+001 -9.106760E-002  6.605877E-001 -6.758601E+001  9.796611E+001
              -9.108710E-002  6.587083E-001 -4.189009E+001  9.270045E+001 -6.719707E+001 -9.685052E+001
              -6.694810E+001  9.170510E+001 -6.677016E+001 -9.101128E+001 -1.381785E-001 -1.787696E+002
 175.0000     -4.139877E+001  5.512405E+001 -9.308014E-002  3.673206E-001 -6.609472E+001  8.996338E+001
              -9.105751E-002  3.649108E-001 -4.277538E+001  8.522087E+001 -6.627666E+001 -9.208745E+001
              -6.609155E+001  9.147064E+001 -6.644281E+001 -9.135881E+001 -1.477411E-001 -1.785359E+002
 200.0000     -4.192638E+001  5.015489E+001 -9.289649E-002  1.177555E-001 -6.520308E+001  8.947615E+001
              -9.112652E-002  1.030016E-001 -4.316585E+001  8.185458E+001 -6.541228E+001 -9.144338E+001
              -6.504787E+001  9.133050E+001 -6.551031E+001 -9.340141E+001 -1.581605E-001 -1.782926E+002
 225.0000     -4.211950E+001  4.235262E+001 -9.508145E-002 -9.143911E-002 -6.390156E+001  9.249291E+001
              -9.091635E-002 -8.788709E-002 -4.400877E+001  7.642242E+001 -6.447764E+001 -9.301402E+001
              -6.392076E+001  9.025218E+001 -6.446729E+001 -9.312778E+001 -1.675548E-001 -1.780077E+002
 250.0000     -4.221180E+001  3.889809E+001 -9.364101E-002 -2.611035E-001 -6.266458E+001  9.153268E+001
              -9.216930E-002 -2.583710E-001 -4.519431E+001  7.232235E+001 -6.391702E+001 -9.170007E+001
              -6.280534E+001  9.274895E+001 -6.339114E+001 -9.475069E+001 -1.762393E-001 -1.777220E+002
 275.0000     -4.265599E+001  3.205137E+001 -9.482355E-002 -4.260794E-001 -6.205645E+001  9.492087E+001
              -9.332582E-002 -4.259364E-001 -4.680048E+001  6.384310E+001 -6.298883E+001 -9.696098E+001
              -6.211635E+001  9.469024E+001 -6.284369E+001 -9.641884E+001 -1.816320E-001 -1.774749E+002
 300.0000     -4.278717E+001  2.717089E+001 -9.484705E-002 -5.764687E-001 -6.105496E+001  9.690123E+001
              -9.289090E-002 -5.814562E-001 -4.798849E+001  5.192130E+001 -6.239568E+001 -9.664091E+001
              -6.141080E+001  9.637376E+001 -6.228142E+001 -9.690776E+001 -1.864894E-001 -1.772186E+002
 325.0000     -4.302771E+001  2.351297E+001 -9.557197E-002 -7.191300E-001 -6.030675E+001  9.637239E+001
              -9.331872E-002 -7.221100E-001 -4.819170E+001  4.354876E+001 -6.166822E+001 -9.749597E+001
              -6.045290E+001  9.666069E+001 -6.158247E+001 -9.613523E+001 -1.895764E-001 -1.769292E+002
 350.0000     -4.297120E+001  1.992022E+001 -9.663817E-002 -8.433396E-001 -5.966169E+001  9.550163E+001
              -9.450977E-002 -8.474745E-001 -4.813897E+001  4.039997E+001 -6.125431E+001 -9.668423E+001
              -5.965316E+001  9.776470E+001 -6.119891E+001 -9.741915E+001 -1.919516E-001 -1.766346E+002
 375.0000     -4.283229E+001  1.742677E+001 -9.554405E-002 -9.735452E-001 -5.911082E+001  9.844021E+001
              -9.375796E-002 -9.763920E-001 -4.865770E+001  3.452609E+001 -6.051133E+001 -9.799854E+001
              -5.905638E+001  9.851722E+001 -6.045585E+001 -9.887357E+001 -1.950933E-001 -1.763736E+002
 400.0000     -4.288076E+001  1.271579E+001 -9.610035E-002 -1.098345E+000 -5.860917E+001  9.986384E+001
              -9.335312E-002 -1.099404E+000 -4.891327E+001  2.389451E+001 -6.002400E+001 -9.889842E+001
              -5.851078E+001  9.958743E+001 -5.994761E+001 -9.940421E+001 -1.981904E-001 -1.761340E+002
 425.0000     -4.294208E+001  8.068110E+000 -9.687210E-002 -1.208330E+000 -5.779808E+001  1.012518E+002
              -9.515014E-002 -1.218722E+000 -4.856715E+001  1.707321E+001 -5.931486E+001 -1.004516E+002
              -5.780129E+001  1.002724E+002 -5.936549E+001 -1.005197E+002 -2.022511E-001 -1.758823E+002
 450.0000     -4.298703E+001  2.798954E+000 -9.836148E-002 -1.325789E+000 -5.715490E+001  1.002446E+002
              -9.556019E-002 -1.336096E+000 -4.853920E+001  1.135285E+001 -5.891000E+001 -1.018175E+002
              -5.727184E+001  1.013270E+002 -5.887262E+001 -1.012712E+002 -2.039487E-001 -1.756261E+002
 475.0000     -4.280825E+001  1.200292E+000 -9.866657E-002 -1.442404E+000 -5.681874E+001  1.022517E+002
              -9.614017E-002 -1.447189E+000 -4.869213E+001  7.655011E+000 -5.850887E+001 -1.025479E+002
              -5.680885E+001  1.018642E+002 -5.837706E+001 -1.021428E+002 -2.059541E-001 -1.753652E+002
 500.0000     -4.257435E+001 -3.293579E+000 -9.961755E-002 -1.553865E+000 -5.628604E+001  1.033021E+002
              -9.728721E-002 -1.553459E+000 -4.891021E+001 -2.533858E-001 -5.807887E+001 -1.032943E+002
              -5.631144E+001  1.027298E+002 -5.799849E+001 -1.033449E+002 -2.090884E-001 -1.751038E+002
 525.0000     -4.239214E+001 -1.036858E+001 -9.940585E-002 -1.659107E+000 -5.588306E+001  1.037029E+002
              -9.762596E-002 -1.664913E+000 -4.835298E+001 -1.134987E+001 -5.763339E+001 -1.040754E+002
              -5.582491E+001  1.033953E+002 -5.758809E+001 -1.043639E+002 -2.123186E-001 -1.748366E+002
 550.0000     -4.228058E+001 -1.473614E+001 -1.016236E-001 -1.764070E+000 -5.546126E+001  1.041527E+002
              -9.894564E-002 -1.765287E+000 -4.725307E+001 -1.500339E+001 -5.712503E+001 -1.049323E+002
              -5.544522E+001  1.042778E+002 -5.725587E+001 -1.051105E+002 -2.150901E-001 -1.745736E+002
 575.0000     -4.236938E+001 -1.527373E+001 -1.027464E-001 -1.865093E+000 -5.504669E+001  1.059312E+002
              -1.001089E-001 -1.869401E+000 -4.679365E+001 -1.755134E+001 -5.678104E+001 -1.055873E+002
              -5.504605E+001  1.056068E+002 -5.675849E+001 -1.054966E+002 -2.160924E-001 -1.743336E+002
 600.0000     -4.218139E+001 -1.586523E+001 -1.027810E-001 -1.971822E+000 -5.458429E+001  1.066970E+002
              -1.017174E-001 -1.972646E+000 -4.657669E+001 -1.830683E+001 -5.635974E+001 -1.064871E+002
              -5.461477E+001  1.065617E+002 -5.640396E+001 -1.064227E+002 -2.183429E-001 -1.740831E+002
 625.0000     -4.169738E+001 -1.804215E+001 -1.045895E-001 -2.074464E+000 -5.415977E+001  1.073733E+002
              -1.027887E-001 -2.076637E+000 -4.621367E+001 -2.253892E+001 -5.597983E+001 -1.069182E+002
              -5.421804E+001  1.075725E+002 -5.598952E+001 -1.068065E+002 -2.215874E-001 -1.738336E+002
 650.0000     -4.122914E+001 -2.058984E+001 -1.055249E-001 -2.177356E+000 -5.377676E+001  1.083567E+002
              -1.039212E-001 -2.180381E+000 -4.534072E+001 -2.478031E+001 -5.558996E+001 -1.078798E+002
              -5.377205E+001  1.078912E+002 -5.565527E+001 -1.080263E+002 -2.235121E-001 -1.735953E+002
 675.0000     -4.095479E+001 -2.115962E+001 -1.074275E-001 -2.288149E+000 -5.345965E+001  1.093510E+002
              -1.053500E-001 -2.287869E+000 -4.454510E+001 -2.460476E+001 -5.526212E+001 -1.084801E+002
              -5.343909E+001  1.088577E+002 -5.541643E+001 -1.084722E+002 -2.255502E-001 -1.733682E+002
 700.0000     -4.068958E+001 -2.169865E+001 -1.113965E-001 -2.391495E+000 -5.301726E+001  1.097375E+002
              -1.090687E-001 -2.394373E+000 -4.394988E+001 -2.581187E+001 -5.492343E+001 -1.092428E+002
              -5.304895E+001  1.102881E+002 -5.489091E+001 -1.088795E+002 -2.260347E-001 -1.731203E+002
 725.0000     -4.006873E+001 -2.333994E+001 -1.166171E-001 -2.492102E+000 -5.263962E+001  1.106361E+002
              -1.143659E-001 -2.493031E+000 -4.328379E+001 -2.811870E+001 -5.459172E+001 -1.099741E+002
              -5.264735E+001  1.103175E+002 -5.455183E+001 -1.101338E+002 -2.257654E-001 -1.728699E+002
 750.0000     -3.934434E+001 -2.514868E+001 -1.230970E-001 -2.584389E+000 -5.233821E+001  1.114203E+002
              -1.217154E-001 -2.583739E+000 -4.193608E+001 -3.073917E+001 -5.430488E+001 -1.114669E+002
              -5.234459E+001  1.109586E+002 -5.429546E+001 -1.111801E+002 -2.277541E-001 -1.726425E+002
 775.0000     -3.843993E+001 -2.776860E+001 -1.317997E-001 -2.649326E+000 -5.205609E+001  1.123563E+002
              -1.294813E-001 -2.648158E+000 -4.045669E+001 -3.247580E+001 -5.407905E+001 -1.116663E+002
              -5.209671E+001  1.126459E+002 -5.411355E+001 -1.114844E+002 -2.311514E-001 -1.724328E+002
 800.0000     -3.761906E+001 -3.150220E+001 -1.373781E-001 -2.678360E+000 -5.173927E+001  1.136724E+002
              -1.357757E-001 -2.680482E+000 -3.920301E+001 -3.631531E+001 -5.377604E+001 -1.117503E+002
              -5.177722E+001  1.135141E+002 -5.377941E+001 -1.119034E+002 -2.340642E-001 -1.722286E+002
 825.0000     -3.707488E+001 -3.721745E+001 -1.380393E-001 -2.695112E+000 -5.138131E+001  1.143386E+002
              -1.362954E-001 -2.697775E+000 -3.848451E+001 -4.353503E+001 -5.344740E+001 -1.121505E+002
              -5.137584E+001  1.147054E+002 -5.351609E+001 -1.119324E+002 -2.348102E-001 -1.720154E+002
 850.0000     -3.679521E+001 -4.253241E+001 -1.340216E-001 -2.740775E+000 -5.103382E+001  1.154405E+002
              -1.322255E-001 -2.739958E+000 -3.817304E+001 -5.128119E+001 -5.312447E+001 -1.123838E+002
              -5.107388E+001  1.153917E+002 -5.314310E+001 -1.122032E+002 -2.373183E-001 -1.718145E+002
 875.0000     -3.672272E+001 -4.656789E+001 -1.292420E-001 -2.808004E+000 -5.072791E+001  1.162498E+002
              -1.268264E-001 -2.809498E+000 -3.799503E+001 -5.585540E+001 -5.281441E+001 -1.130754E+002
              -5.072898E+001  1.163883E+002 -5.285396E+001 -1.129557E+002 -2.404311E-001 -1.716219E+002
 900.0000     -3.682874E+001 -4.982987E+001 -1.247544E-001 -2.893472E+000 -5.037161E+001  1.172820E+002
              -1.228132E-001 -2.892700E+000 -3.785223E+001 -5.813130E+001 -5.251368E+001 -1.133707E+002
              -5.035838E+001  1.171213E+002 -5.255670E+001 -1.135817E+002 -2.424462E-001 -1.714419E+002
 925.0000     -3.694733E+001 -5.273989E+001 -1.222437E-001 -2.989258E+000 -5.005095E+001  1.178197E+002
              -1.199723E-001 -2.990831E+000 -3.783212E+001 -6.012844E+001 -5.227358E+001 -1.137990E+002
              -5.006658E+001  1.180017E+002 -5.222824E+001 -1.143463E+002 -2.431232E-001 -1.712423E+002
 950.0000     -3.682420E+001 -5.488085E+001 -1.210399E-001 -3.084083E+000 -4.975048E+001  1.187841E+002
              -1.187540E-001 -3.082131E+000 -3.752884E+001 -6.401353E+001 -5.198793E+001 -1.141310E+002
              -4.977633E+001  1.188549E+002 -5.196533E+001 -1.142580E+002 -2.433652E-001 -1.710217E+002
 975.0000     -3.655790E+001 -5.591133E+001 -1.201553E-001 -3.173829E+000 -4.944226E+001  1.197436E+002
              -1.189248E-001 -3.176996E+000 -3.730291E+001 -6.659965E+001 -5.167366E+001 -1.146683E+002
              -4.943884E+001  1.199043E+002 -5.166895E+001 -1.144240E+002 -2.455782E-001 -1.708165E+002
1000.0000     -3.643956E+001 -5.722355E+001 -1.206309E-001 -3.262248E+000 -4.911708E+001  1.206405E+002
              -1.194526E-001 -3.258913E+000 -3.704195E+001 -6.688329E+001 -5.133955E+001 -1.151268E+002
              -4.914001E+001  1.205621E+002 -5.137738E+001 -1.151082E+002 -2.478843E-001 -1.706439E+002
1025.0000     -3.637741E+001 -5.737622E+001 -1.221289E-001 -3.349178E+000 -4.882021E+001  1.215481E+002
              -1.210789E-001 -3.350640E+000 -3.677525E+001 -6.670914E+001 -5.111496E+001 -1.153271E+002
              -4.885671E+001  1.215273E+002 -5.114082E+001 -1.154720E+002 -2.511641E-001 -1.704980E+002
1050.0000     -3.614331E+001 -5.806580E+001 -1.243080E-001 -3.434917E+000 -4.851982E+001  1.227854E+002
              -1.227945E-001 -3.438730E+000 -3.647668E+001 -6.650931E+001 -5.086145E+001 -1.152806E+002
              -4.854067E+001  1.229163E+002 -5.088588E+001 -1.152962E+002 -2.529183E-001 -1.703321E+002
1075.0000     -3.575066E+001 -5.887629E+001 -1.258944E-001 -3.517956E+000 -4.814498E+001  1.239759E+002
              -1.245716E-001 -3.521661E+000 -3.610470E+001 -6.887868E+001 -5.055336E+001 -1.151273E+002
              -4.816086E+001  1.238825E+002 -5.054780E+001 -1.147761E+002 -2.542610E-001 -1.701597E+002
1100.0000     -3.537613E+001 -5.938160E+001 -1.273415E-001 -3.595569E+000 -4.773288E+001  1.246767E+002
              -1.257687E-001 -3.597451E+000 -3.567042E+001 -7.088492E+001 -5.017906E+001 -1.147020E+002
              -4.776408E+001  1.248632E+002 -5.017713E+001 -1.148081E+002 -2.564332E-001 -1.700028E+002
1125.0000     -3.517748E+001 -6.105758E+001 -1.279882E-001 -3.670472E+000 -4.733582E+001  1.254367E+002
              -1.265101E-001 -3.672736E+000 -3.533919E+001 -7.204171E+001 -4.977240E+001 -1.146054E+002
              -4.734426E+001  1.254038E+002 -4.972979E+001 -1.148482E+002 -2.587739E-001 -1.698674E+002
1150.0000     -3.489997E+001 -6.233774E+001 -1.288058E-001 -3.741963E+000 -4.695028E+001  1.257862E+002
              -1.274175E-001 -3.743319E+000 -3.492957E+001 -7.303309E+001 -4.931773E+001 -1.151907E+002
              -4.695630E+001  1.258890E+002 -4.932871E+001 -1.150962E+002 -2.608390E-001 -1.697161E+002
1175.0000     -3.455278E+001 -6.375625E+001 -1.294623E-001 -3.814367E+000 -4.654788E+001  1.259687E+002
              -1.274987E-001 -3.820546E+000 -3.464160E+001 -7.490122E+001 -4.890041E+001 -1.159894E+002
              -4.660655E+001  1.258780E+002 -4.889590E+001 -1.159814E+002 -2.624686E-001 -1.695493E+002
1200.0000     -3.413317E+001 -6.472371E+001 -1.294854E-001 -3.888116E+000 -4.622815E+001  1.260552E+002
              -1.279907E-001 -3.895828E+000 -3.431303E+001 -7.742484E+001 -4.853811E+001 -1.171863E+002
              -4.624065E+001  1.259870E+002 -4.851438E+001 -1.169285E+002 -2.656891E-001 -1.694012E+002
1225.0000     -3.379790E+001 -6.507998E+001 -1.291391E-001 -3.962523E+000 -4.589802E+001  1.259561E+002
              -1.276849E-001 -3.965234E+000 -3.410946E+001 -7.818771E+001 -4.815075E+001 -1.179111E+002
              -4.590245E+001  1.259669E+002 -4.816628E+001 -1.178913E+002 -2.687736E-001 -1.692873E+002
1250.0000     -3.361343E+001 -6.618981E+001 -1.289905E-001 -4.042044E+000 -4.562555E+001  1.258912E+002
              -1.274924E-001 -4.040330E+000 -3.384561E+001 -7.892307E+001 -4.778435E+001 -1.189518E+002
              -4.560482E+001  1.260328E+002 -4.778832E+001 -1.187815E+002 -2.710751E-001 -1.691891E+002
1275.0000     -3.339531E+001 -6.752103E+001 -1.288561E-001 -4.125567E+000 -4.534935E+001  1.258338E+002
              -1.267840E-001 -4.126802E+000 -3.363596E+001 -7.934274E+001 -4.743130E+001 -1.201812E+002
              -4.534418E+001  1.258168E+002 -4.743557E+001 -1.202119E+002 -2.724141E-001 -1.690732E+002
1300.0000     -3.309850E+001 -6.835484E+001 -1.291233E-001 -4.206148E+000 -4.509925E+001  1.257138E+002
              -1.269367E-001 -4.210279E+000 -3.348772E+001 -8.076917E+001 -4.711592E+001 -1.218159E+002
              -4.511272E+001  1.256007E+002 -4.712602E+001 -1.216765E+002 -2.729149E-001 -1.689421E+002
1325.0000     -3.281450E+001 -6.921291E+001 -1.303854E-001 -4.273891E+000 -4.491600E+001  1.257996E+002
              -1.281990E-001 -4.277764E+000 -3.320304E+001 -8.157474E+001 -4.685080E+001 -1.232642E+002
              -4.491507E+001  1.258164E+002 -4.686612E+001 -1.231434E+002 -2.760345E-001 -1.688237E+002
1350.0000     -3.257650E+001 -7.009229E+001 -1.306220E-001 -4.341468E+000 -4.468390E+001  1.263696E+002
              -1.292690E-001 -4.342802E+000 -3.285979E+001 -8.218180E+001 -4.664500E+001 -1.243967E+002
              -4.469160E+001  1.263731E+002 -4.666034E+001 -1.243159E+002 -2.790819E-001 -1.687354E+002
1375.0000     -3.235763E+001 -7.179694E+001 -1.310060E-001 -4.424514E+000 -4.441548E+001  1.267459E+002
              -1.295926E-001 -4.425874E+000 -3.253447E+001 -8.243702E+001 -4.640627E+001 -1.248449E+002
              -4.442910E+001  1.268170E+002 -4.642118E+001 -1.249212E+002 -2.813581E-001 -1.686600E+002
1400.0000     -3.203659E+001 -7.324400E+001 -1.315784E-001 -4.502971E+000 -4.414866E+001  1.272027E+002
              -1.292018E-001 -4.510477E+000 -3.221573E+001 -8.333502E+001 -4.614932E+001 -1.257633E+002
              -4.415238E+001  1.271145E+002 -4.614798E+001 -1.257652E+002 -2.838702E-001 -1.685712E+002
1425.0000     -3.169263E+001 -7.375045E+001 -1.311529E-001 -4.579082E+000 -4.387419E+001  1.275432E+002
