!  1-Port S-parameters saved by WinCal
! VAR MeasName=S-Parameters (CALIBRATED_DATA) read from VNA (N5247B)
! VAR MeasDate=4/19/2019 9:39:01 AM
! VAR NAME=Measurement 4
! VAR FILENAME=LTC5597_vcc_3p3v_en_0_sn8_25c.S1P
! VAR DATE=4/19/2019 9:39:01 AM
! VAR PHYS_PORTS=1
!
# Hz S DB R 50
10000000.000 -2.8301859817E+001 +1.1502115865E+002 
344950000.000 -3.1690710270E+001 -1.7912910121E+002 
679900000.000 -3.0558648239E+001 -1.7650784641E+002 
1014850000.000 -2.8714470369E+001 -1.7963946697E+002 
1349800000.000 -2.6782607307E+001 +1.7216097717E+002 
1684750000.000 -2.4998098355E+001 +1.6095352132E+002 
2019700000.000 -2.3550442594E+001 +1.4773159626E+002 
2354650000.000 -2.2229925213E+001 +1.3459090059E+002 
2689600000.000 -2.1086442290E+001 +1.2066973151E+002 
3024550000.000 -2.0084958104E+001 +1.0672983308E+002 
3359500000.000 -1.9240304557E+001 +9.2846788235E+001 
3694450000.000 -1.8457846279E+001 +7.9041594894E+001 
4029400000.000 -1.7729131019E+001 +6.5078534203E+001 
4364350000.000 -1.7061807392E+001 +5.0608343036E+001 
4699300000.000 -1.6478827042E+001 +3.5901003472E+001 
5034250000.000 -1.5945028972E+001 +2.1174941888E+001 
5369200000.000 -1.5498829546E+001 +6.0773009122E+000 
5704150000.000 -1.5086823507E+001 -9.2361106974E+000 
6039100000.000 -1.4710558466E+001 -2.4850592412E+001 
6374050000.000 -1.4358020611E+001 -4.0662046611E+001 
6709000000.000 -1.4038475818E+001 -5.6451663914E+001 
7043950000.000 -1.3766430409E+001 -7.2361118976E+001 
7378900000.000 -1.3506373914E+001 -8.8431033939E+001 
7713850000.000 -1.3236519071E+001 -1.0460585720E+002 
8048800000.000 -1.2998997128E+001 -1.2062673249E+002 
8383750000.000 -1.2754216511E+001 -1.3683006797E+002 
8718700000.000 -1.2522800284E+001 -1.5291364050E+002 
9053650000.000 -1.2305426994E+001 -1.6887182039E+002 
9388600000.000 -1.2073194628E+001 +1.7502149839E+002 
9723550000.000 -1.1838810189E+001 +1.5921862748E+002 
10058500000.000 -1.1614723331E+001 +1.4341663229E+002 
10393450000.000 -1.1402910611E+001 +1.2759129740E+002 
10728400000.000 -1.1179878061E+001 +1.1176367606E+002 
11063350000.000 -1.1001273643E+001 +9.6153847332E+001 
11398300000.000 -1.0863799107E+001 +8.0229249182E+001 
11733250000.000 -1.0694088786E+001 +6.4584980090E+001 
12068200000.000 -1.0594305813E+001 +4.8719368515E+001 
12403150000.000 -1.0483533396E+001 +3.2943862855E+001 
12738100000.000 -1.0379563793E+001 +1.6865122735E+001 
13073050000.000 -1.0303321679E+001 +7.2969054073E-001 
13408000000.000 -1.0253334288E+001 -1.5488455451E+001 
13742950000.000 -1.0216974020E+001 -3.1833953182E+001 
14077900000.000 -1.0174705827E+001 -4.8300624838E+001 
14412850000.000 -1.0110939851E+001 -6.4966796160E+001 
14747800000.000 -1.0059870385E+001 -8.1533523027E+001 
15082750000.000 -9.9659513169E+000 -9.8076146155E+001 
15417700000.000 -9.8681719894E+000 -1.1486958303E+002 
15752650000.000 -9.7302635574E+000 -1.3143770868E+002 
16087600000.000 -9.5767473840E+000 -1.4787726252E+002 
16422550000.000 -9.4533961140E+000 -1.6387220434E+002 
16757500000.000 -9.2523251485E+000 -1.7982430277E+002 
17092450000.000 -9.0751011862E+000 +1.6433093628E+002 
17427400000.000 -8.8910215332E+000 +1.4880361976E+002 
17762350000.000 -8.7410254713E+000 +1.3354641029E+002 
18097300000.000 -8.5956174766E+000 +1.1816240341E+002 
18432250000.000 -8.4748836491E+000 +1.0310024000E+002 
18767200000.000 -8.4053248735E+000 +8.8504450267E+001 
19102150000.000 -8.3583709138E+000 +7.3791679510E+001 
19437100000.000 -8.3336788173E+000 +5.9222738714E+001 
19772050000.000 -8.3718925159E+000 +4.4881642297E+001 
20107000000.000 -8.4431217876E+000 +3.0226010245E+001 
20441950000.000 -8.5664547539E+000 +1.5559120246E+001 
20776900000.000 -8.6871533026E+000 +4.6983658427E-001 
21111850000.000 -8.8690390866E+000 -1.4724978251E+001 
21446800000.000 -9.0595731664E+000 -3.0282776221E+001 
21781750000.000 -9.2771560796E+000 -4.6077677744E+001 
22116700000.000 -9.5022135934E+000 -6.2292615195E+001 
22451650000.000 -9.7392555303E+000 -7.9232016872E+001 
22786600000.000 -9.9450204666E+000 -9.5986108489E+001 
23121550000.000 -1.0156818187E+001 -1.1288185052E+002 
23456500000.000 -1.0331621665E+001 -1.3062181493E+002 
23791450000.000 -1.0448705931E+001 -1.4863250044E+002 
24126400000.000 -1.0560016427E+001 -1.6612480771E+002 
24461350000.000 -1.0648254937E+001 +1.7583449346E+002 
24796300000.000 -1.0595204784E+001 +1.5836120238E+002 
25131250000.000 -1.0652051293E+001 +1.4083707756E+002 
25466200000.000 -1.0585433586E+001 +1.2331296755E+002 
25801150000.000 -1.0571407623E+001 +1.0607112540E+002 
26136100000.000 -1.0529842950E+001 +8.9352471026E+001 
26471050000.000 -1.0454902293E+001 +7.2437142461E+001 
26806000000.000 -1.0398293881E+001 +5.6067861203E+001 
27140950000.000 -1.0387033809E+001 +3.9787864058E+001 
27475900000.000 -1.0385636616E+001 +2.3826560752E+001 
27810850000.000 -1.0406872657E+001 +7.9202127665E+000 
28145800000.000 -1.0453471418E+001 -8.2632157949E+000 
28480750000.000 -1.0593046132E+001 -2.4517296643E+001 
28815700000.000 -1.0743468834E+001 -4.0932577786E+001 
29150650000.000 -1.0970249342E+001 -5.7523788562E+001 
29485600000.000 -1.1225615476E+001 -7.4011786318E+001 
29820550000.000 -1.1505018447E+001 -9.1277555329E+001 
30155500000.000 -1.1735853458E+001 -1.0893942592E+002 
30490450000.000 -1.1914882943E+001 -1.2682811204E+002 
30825400000.000 -1.2096114512E+001 -1.4436320459E+002 
31160350000.000 -1.2219640356E+001 -1.6289407543E+002 
31495300000.000 -1.2129918902E+001 +1.7853112369E+002 
31830250000.000 -1.2073360502E+001 +1.6060093175E+002 
32165200000.000 -1.2078533658E+001 +1.4188302146E+002 
32500150000.000 -1.1941718259E+001 +1.2517098130E+002 
32835100000.000 -1.1765679180E+001 +1.0932893693E+002 
33170050000.000 -1.1781723006E+001 +9.4169267371E+001 
33505000000.000 -1.1743841859E+001 +7.8093548048E+001 
33839950000.000 -1.1716108699E+001 +6.2884595857E+001 
34174900000.000 -1.1735381227E+001 +4.7502454474E+001 
34509850000.000 -1.1896113686E+001 +3.1901907375E+001 
34844800000.000 -1.2087930675E+001 +1.6982439130E+001 
35179750000.000 -1.2273319421E+001 +2.8801395846E+000 
35514700000.000 -1.2432774119E+001 -1.2880270994E+001 
35849650000.000 -1.2481716490E+001 -2.9929890520E+001 
36184600000.000 -1.2661560870E+001 -4.7727211317E+001 
36519550000.000 -1.2908801826E+001 -6.5965338112E+001 
36854500000.000 -1.3102333819E+001 -8.4698488355E+001 
37189450000.000 -1.3288269355E+001 -1.0490905862E+002 
37524400000.000 -1.3313487885E+001 -1.2408909901E+002 
37859350000.000 -1.3681245245E+001 -1.4398786845E+002 
38194300000.000 -1.3650602611E+001 -1.6471804196E+002 
38529250000.000 -1.3631777588E+001 +1.7497226778E+002 
38864200000.000 -1.3694496264E+001 +1.5477687720E+002 
39199150000.000 -1.3893006624E+001 +1.3414959929E+002 
39534100000.000 -1.4010719688E+001 +1.1371056539E+002 
39869050000.000 -1.4310862166E+001 +9.4616890877E+001 
40204000000.000 -1.4988455300E+001 +7.7022459572E+001 
40538950000.000 -1.5510836774E+001 +6.0128601577E+001 
40873900000.000 -1.5959238733E+001 +4.9217834373E+001 
41208850000.000 -1.6356524744E+001 +3.6671661354E+001 
41543800000.000 -1.6470086903E+001 +2.5515081925E+001 
41878750000.000 -1.6347809429E+001 +1.5737832022E+001 
42213700000.000 -1.6185182828E+001 +6.9228286998E+000 
42548650000.000 -1.5902895773E+001 -4.4101845500E+000 
42883600000.000 -1.5691281526E+001 -1.5360432627E+001 
43218550000.000 -1.5715793413E+001 -2.6654671886E+001 
43553500000.000 -1.5757088823E+001 -3.7597185881E+001 
43888450000.000 -1.5836011521E+001 -5.0390761905E+001 
44223400000.000 -1.6165093458E+001 -6.2813167303E+001 
44558350000.000 -1.6674200513E+001 -7.5175564863E+001 
44893300000.000 -1.6936552033E+001 -8.5619690879E+001 
45228250000.000 -1.7629525163E+001 -9.8964702913E+001 
45563200000.000 -1.7881694372E+001 -1.1248385953E+002 
45898150000.000 -1.8324443112E+001 -1.2572358040E+002 
46233100000.000 -1.8902018172E+001 -1.3979940851E+002 
46568050000.000 -1.9163886625E+001 -1.5595648122E+002 
46903000000.000 -1.9392770251E+001 -1.7018519523E+002 
47237950000.000 -1.9678994896E+001 +1.7374760805E+002 
47572900000.000 -1.9848625498E+001 +1.6112385868E+002 
47907850000.000 -2.0030829587E+001 +1.4817802137E+002 
48242800000.000 -2.0031482983E+001 +1.3643373941E+002 
48577750000.000 -2.0334834769E+001 +1.2574888430E+002 
48912700000.000 -2.0315247930E+001 +1.1382483127E+002 
49247650000.000 -2.0020957953E+001 +1.0635257429E+002 
49582600000.000 -2.0152559571E+001 +9.7594111744E+001 
49917550000.000 -2.0270839587E+001 +8.7981103186E+001 
50252500000.000 -2.0373215527E+001 +8.0540903839E+001 
50587450000.000 -2.0611825652E+001 +7.2540598698E+001 
50922400000.000 -2.0463183467E+001 +6.4187540990E+001 
51257350000.000 -2.0537170851E+001 +5.9347530519E+001 
51592300000.000 -2.0586057536E+001 +4.8877400515E+001 
51927250000.000 -2.0193881888E+001 +4.1309608148E+001 
52262200000.000 -1.9929174115E+001 +3.2516434454E+001 
52597150000.000 -1.9626604064E+001 +2.0145169125E+001 
52932100000.000 -1.9137128383E+001 +1.0438289862E+001 
53267050000.000 -1.9010632300E+001 -1.8913151279E+000 
53602000000.000 -1.8480020062E+001 -1.4764817221E+001 
53936950000.000 -1.8090199607E+001 -2.8675316484E+001 
54271900000.000 -1.7646439440E+001 -4.1228863951E+001 
54606850000.000 -1.7479846331E+001 -5.6000678561E+001 
54941800000.000 -1.7035893706E+001 -7.2632164104E+001 
55276750000.000 -1.6769586311E+001 -8.5358513529E+001 
55611700000.000 -1.6581428610E+001 -1.0043515105E+002 
55946650000.000 -1.6731412759E+001 -1.1912915319E+002 
56281600000.000 -1.6258577181E+001 -1.3510969854E+002 
56616550000.000 -1.6236048384E+001 -1.4705910314E+002 
56951500000.000 -1.5858541455E+001 -1.6185252048E+002 
57286450000.000 -1.5327532099E+001 -1.7966895079E+002 
57621400000.000 -1.4857754443E+001 +1.6564035142E+002 
57956350000.000 -1.4239186423E+001 +1.5117581163E+002 
58291300000.000 -1.3723545470E+001 +1.3644711447E+002 
58626250000.000 -1.3108000718E+001 +1.2317007439E+002 
58961200000.000 -1.2533577457E+001 +1.0983997419E+002 
59296150000.000 -1.2047456866E+001 +9.6663007526E+001 
59631100000.000 -1.1525096445E+001 +8.4412222144E+001 
59966050000.000 -1.1153897261E+001 +7.1702864379E+001 
60301000000.000 -1.0588589159E+001 +5.9590080822E+001 
60635950000.000 -1.0360972194E+001 +4.7398747384E+001 
60970900000.000 -1.0062226448E+001 +3.5339248838E+001 
61305850000.000 -9.8425359829E+000 +2.3892588174E+001 
61640800000.000 -9.7922650907E+000 +1.2483659156E+001 
61975750000.000 -9.5836680222E+000 -1.4689023100E+000 
62310700000.000 -9.3236788236E+000 -1.2878145827E+001 
62645650000.000 -9.2867088199E+000 -2.5186631736E+001 
62980600000.000 -9.1534319941E+000 -3.8258967847E+001 
63315550000.000 -9.0837927761E+000 -5.1628240797E+001 
63650500000.000 -8.8545189758E+000 -6.4523611910E+001 
63985450000.000 -8.9061675182E+000 -7.8388573801E+001 
64320400000.000 -8.8769533030E+000 -9.2242709188E+001 
64655350000.000 -8.8709450560E+000 -1.0648712641E+002 
64990300000.000 -8.7828044854E+000 -1.1968881515E+002 
65325250000.000 -8.9846194479E+000 -1.3298892252E+002 
65660200000.000 -8.9626917147E+000 -1.4744787520E+002 
65995150000.000 -8.7954253244E+000 -1.6075446913E+002 
66330100000.000 -8.9434756575E+000 -1.7549484776E+002 
66665050000.000 -8.6133100202E+000 +1.6938159141E+002 
67000000000.000 -8.4801848725E+000 +1.5513915646E+002 
