!Mini-Circuits Laboratory
!Date: 7/15/2015 at 12:41:14 PM
!S2P DATA File Format
!Type: MMIC Amplifier
!Model: LVA-123+
!S/N: Unit 2
!Fixture: Unit soldered on TB-841+, no port extension
!PIN OUT: PORT 1 - PIN 2, PORT 2 - PIN 5, GROUND - PADDLE, NOT CONNECTED - ALL OTHER PINS
!TEST CONDITIONS: Temp= 25 (Deg C) RF Power= -25.00 (dBm) V limit=5(V) I limit=150(mA) Z=50 OHM
!PROD RUN: Q16010, DATE CODE: 1527
!WAFER/LOT#: BH175P001-02-01EV
!Network Analyzer: PNA-X N5242A S/N 71404 CAL DUE: 12/5/2015
!P.Supply/Multimeter: HP E3632A S/N 63249 CAL DUE: 12/11/2015
!
# Hz  S  dB  R  50
!Frequency    S11 dB        S11 Deg       S21 dB        S21 Deg       S12 dB        S12 Deg       S22 dB        S22 Deg       
10000000      -11.4066300   154.4464000   14.4466500    -175.1770000  -22.3704200   6.9249920     -11.1022400   -9.1142150    
20000000      -11.7873100   147.5204000   14.9331700    -171.7265000  -22.1012100   7.4876950     -11.4837900   -20.0236400   
30000000      -12.3112900   139.1699000   15.5266100    -170.2944000  -21.7828000   7.8175320     -12.0885400   -29.8833700   
40000000      -12.9803500   129.6262000   16.0629700    -170.3080000  -21.4299900   7.9337500     -12.8057700   -38.1809300   
50000000      -13.7951400   119.0167000   16.5028900    -171.2549000  -21.0522400   7.8313860     -13.6631500   -45.2922700   
60000000      -14.6731200   109.3001000   16.8301400    -172.4826000  -20.7164400   7.0862660     -14.5811100   -51.3868100   
70000000      -15.6043800   100.4131000   17.0877700    -174.0892000  -20.4462900   5.9273190     -15.5441800   -56.1677600   
80000000      -16.5687600   92.3018300    17.2748900    -175.7329000  -20.2389700   4.5452900     -16.5049800   -59.9389100   
90000000      -17.5553700   84.9857900    17.4092300    -177.3342000  -20.0879700   3.1013380     -17.4441500   -62.8851800   
100000000     -18.5323100   78.4080000    17.5055200    -178.8764000  -19.9832700   1.7251860     -18.3602800   -64.9175900   
110000000     -19.4919000   72.3534500    17.5738300    179.6745000   -19.9116000   0.4097900     -19.2371900   -66.3609400   
120000000     -20.4383600   66.7054400    17.6199200    178.3024000   -19.8646500   -0.8288463    -20.0472300   -67.2054100   
130000000     -21.3839700   61.3897300    17.6504700    177.0363000   -19.8360000   -1.9855060    -20.8009300   -67.4909400   
140000000     -22.3329800   56.5471000    17.6700500    175.8367000   -19.8203200   -3.0626180    -21.5034400   -67.1876500   
150000000     -23.2664600   52.1510200    17.6780300    174.7100000   -19.8144900   -4.0698070    -22.1465400   -66.7243100   
160000000     -24.1658100   47.9807900    17.6835400    173.6381000   -19.8155700   -5.0116010    -22.7317100   -65.5711000   
170000000     -25.0487900   43.9405400    17.6836200    172.6177000   -19.8215300   -5.8927270    -23.2150000   -64.4255800   
180000000     -25.9298400   40.0720300    17.6818100    171.6471000   -19.8301100   -6.7276450    -23.6251400   -63.0313000   
190000000     -26.8120200   36.4473500    17.6745900    170.7222000   -19.8409100   -7.5183140    -23.9671200   -61.6957300   
200000000     -27.6653100   33.1013700    17.6685200    169.8306000   -19.8533600   -8.2717570    -24.2304700   -60.1633900   
210000000     -28.4948800   29.8686900    17.6575600    168.9808000   -19.8667300   -8.9921900    -24.4533900   -59.0402800   
220000000     -29.2971700   26.6110800    17.6485500    168.1386000   -19.8801500   -9.6833820    -24.6474800   -57.6850900   
230000000     -30.1164400   23.3847900    17.6388800    167.3202000   -19.8934000   -10.3481300   -24.7760300   -56.3847900   
240000000     -30.9520700   20.2326500    17.6294200    166.5315000   -19.9064900   -10.9921800   -24.9090300   -55.2577600   
250000000     -31.7567000   17.3500000    17.6201400    165.7616000   -19.9200800   -11.6114700   -24.9599900   -54.3100000   
260000000     -32.5273600   14.5515500    17.6100800    164.9996000   -19.9332300   -12.2139700   -24.9951600   -53.4015400   
270000000     -33.3180400   11.7694000    17.6003800    164.2497000   -19.9457800   -12.8023800   -25.0139200   -52.7101500   
280000000     -34.1123200   8.9306680     17.5919100    163.5190000   -19.9576300   -13.3786200   -25.0096800   -52.1436800   
290000000     -34.9256300   6.3305280     17.5830600    162.7982000   -19.9691500   -13.9468500   -24.9847700   -51.6797300   
300000000     -35.6894600   3.9186420     17.5765300    162.0868000   -19.9805300   -14.5055500   -24.9678500   -51.4418000   
310000000     -36.4328800   1.3253530     17.5685700    161.3844000   -19.9914400   -15.0557000   -24.9529900   -51.3225000   
320000000     -37.1928500   -1.2674640    17.5592600    160.6862000   -20.0017700   -15.5978500   -24.9194200   -51.2973300   
330000000     -37.9988400   -4.4581430    17.5528700    159.9946000   -20.0117900   -16.1325400   -24.8688600   -51.2937500   
340000000     -38.8100100   -7.3992620    17.5463500    159.3252000   -20.0212200   -16.6617900   -24.8207000   -51.3318600   
350000000     -39.6171900   -10.1982800   17.5396300    158.6331000   -20.0303200   -17.1848100   -24.7720500   -51.4444400   
360000000     -40.3750000   -13.1219300   17.5329700    157.9571000   -20.0389100   -17.6997200   -24.6987400   -51.5660100   
370000000     -41.1780700   -16.6930200   17.5270800    157.2914000   -20.0468200   -18.2128600   -24.6727700   -51.8048800   
380000000     -42.0329200   -20.5961600   17.5206600    156.6206000   -20.0542400   -18.7232500   -24.6262600   -52.0977800   
390000000     -42.8625900   -24.1952800   17.5144800    155.9625000   -20.0611700   -19.2302100   -24.5707900   -52.2992500   
400000000     -43.6789100   -27.2191700   17.5092100    155.2943000   -20.0676800   -19.7354200   -24.5334700   -52.6627400   
410000000     -44.3957500   -30.6231200   17.5037000    154.6419000   -20.0739700   -20.2378100   -24.4621500   -53.0163200   
420000000     -45.1442500   -35.1318500   17.4995700    153.9849000   -20.0797800   -20.7380200   -24.4207900   -53.3388100   
430000000     -45.9952700   -39.0675000   17.4942100    153.3336000   -20.0852800   -21.2372500   -24.3695400   -53.7943700   
440000000     -46.8181700   -42.7150200   17.4905100    152.6800000   -20.0905600   -21.7350100   -24.2969400   -54.3636300   
450000000     -47.5659100   -45.9309800   17.4867500    152.0316000   -20.0958000   -22.2299200   -24.2524300   -55.0994100   
460000000     -48.1865600   -49.8618600   17.4821800    151.3885000   -20.1009100   -22.7242900   -24.1985700   -55.5402900   
470000000     -48.7267900   -54.6497000   17.4782900    150.7467000   -20.1058900   -23.2171600   -24.1482600   -56.1822200   
480000000     -49.3073300   -59.4511000   17.4746800    150.0975000   -20.1112100   -23.7040300   -24.0975400   -56.7891300   
490000000     -49.9457100   -63.7723600   17.4710000    149.4615000   -20.1163000   -24.1897000   -24.0283800   -57.4297100   
500000000     -50.5401900   -68.2380800   17.4677300    148.8139000   -20.1211800   -24.6746600   -23.9924000   -58.0322000   
510000000     -50.9555900   -72.8821300   17.4679500    148.1454000   -20.1258200   -25.1587400   -23.9553400   -58.8439700   
520000000     -51.4069800   -78.5160700   17.4638300    147.5025000   -20.1301400   -25.6430200   -23.9111200   -59.3923200   
530000000     -51.9909600   -84.4944200   17.4599000    146.8605000   -20.1344100   -26.1253700   -23.8410200   -60.1535000   
540000000     -52.8033500   -89.8143500   17.4572900    146.2203000   -20.1384000   -26.6079400   -23.8082800   -60.8428400   
550000000     -53.3591600   -95.0960500   17.4535100    145.5874000   -20.1416100   -27.0941800   -23.7670100   -61.5036400   
560000000     -53.8027700   -99.9235000   17.4513600    144.9468000   -20.1447500   -27.5799800   -23.7255800   -62.2179700   
570000000     -54.1057400   -104.8655000  17.4493100    144.3092000   -20.1477700   -28.0653100   -23.6865400   -62.9230900   
580000000     -54.6321500   -111.6041000  17.4457900    143.6796000   -20.1507900   -28.5490300   -23.6474400   -63.6279900   
590000000     -55.3702200   -115.9723000  17.4434900    143.0459000   -20.1536100   -29.0324100   -23.6142700   -64.3764300   
600000000     -56.0218000   -118.9280000  17.4415100    142.4089000   -20.1561200   -29.5168300   -23.5535000   -65.1659600   
610000000     -56.1882900   -122.3320000  17.4392800    141.7764000   -20.1584000   -30.0002500   -23.5103400   -65.9492200   
620000000     -56.4828300   -126.7206000  17.4360400    141.1462000   -20.1605300   -30.4848100   -23.4545200   -66.6546200   
630000000     -57.0259600   -131.8720000  17.4346200    140.5144000   -20.1626800   -30.9694300   -23.4125900   -67.4698700   
640000000     -57.6731800   -137.7578000  17.4323600    139.8769000   -20.1647200   -31.4540000   -23.3577500   -68.2668000   
650000000     -58.6640300   -141.6056000  17.4303800    139.2408000   -20.1666500   -31.9387100   -23.3067200   -69.1091800   
660000000     -58.9006300   -146.3552000  17.4279000    138.6099000   -20.1684800   -32.4232600   -23.2621600   -69.9897500   
670000000     -59.5182200   -154.7823000  17.4255600    137.9747000   -20.1704400   -32.9077300   -23.2179500   -70.7626200   
680000000     -60.8932700   -163.6242000  17.4234000    137.3405000   -20.1724400   -33.3923300   -23.1686500   -71.4169200   
690000000     -62.6130500   -168.4571000  17.4218700    136.7113000   -20.1743900   -33.8757700   -23.1221900   -72.1783300   
700000000     -63.5207700   -172.6742000  17.4190600    136.0848000   -20.1762700   -34.3587500   -23.0735800   -72.9560100   
710000000     -64.5066500   -176.3519000  17.4173200    135.4492000   -20.1780500   -34.8408800   -23.0298700   -73.7474800   
720000000     -64.7780500   175.4085000   17.4148700    134.8175000   -20.1797800   -35.3224600   -22.9962000   -74.5374300   
730000000     -65.5115000   164.0365000   17.4140400    134.1878000   -20.1815800   -35.8034700   -22.9458300   -75.2962800   
740000000     -65.7879100   151.1320000   17.4117200    133.5579000   -20.1832600   -36.2831300   -22.9029000   -76.0651200   
750000000     -66.2080200   132.5832000   17.4112500    132.9263000   -20.1848100   -36.7631500   -22.8572300   -76.7906000   
760000000     -66.5660600   118.1732000   17.4084000    132.2931000   -20.1864500   -37.2431800   -22.8228200   -77.5936000   
770000000     -66.4911900   98.5314800    17.4067200    131.6631000   -20.1879100   -37.7236100   -22.7748100   -78.3377400   
780000000     -66.1802700   77.9362400    17.4053500    131.0394000   -20.1893200   -38.2031600   -22.7184700   -79.2699000   
790000000     -65.5037400   60.0143900    17.4038300    130.4119000   -20.1905800   -38.6840300   -22.6717000   -80.0712400   
800000000     -64.7082800   44.6790900    17.4024400    129.7833000   -20.1917600   -39.1653100   -22.6201200   -80.8954600   
810000000     -63.8082200   35.6738200    17.4013900    129.1579000   -20.1929800   -39.6476800   -22.5602100   -81.6344800   
820000000     -61.8740400   32.9883200    17.3989700    128.5280000   -20.1941900   -40.1282300   -22.5092200   -82.4065800   
830000000     -59.5936800   23.8097500    17.3975400    127.9033000   -20.1952100   -40.6088300   -22.4533500   -83.1775900   
840000000     -57.9728900   19.4878300    17.3964800    127.2719000   -20.1962100   -41.0894600   -22.4079400   -83.8303400   
850000000     -56.5150500   16.2431000    17.3949500    126.6449000   -20.1972500   -41.5714200   -22.3544300   -84.6330300   
860000000     -55.6294300   14.9395200    17.3935600    126.0116000   -20.1983300   -42.0531400   -22.3120300   -85.3023900   
870000000     -54.6255000   15.2042700    17.3922400    125.3893000   -20.1993600   -42.5337700   -22.2620900   -86.0168500   
880000000     -53.6799800   13.9183100    17.3903600    124.7597000   -20.2001900   -43.0144500   -22.2131600   -86.8315400   
890000000     -53.0555400   12.5878300    17.3889200    124.1365000   -20.2012800   -43.4956900   -22.1776300   -87.5482900   
900000000     -52.5449000   10.2372000    17.3874500    123.5064000   -20.2022500   -43.9760400   -22.1459000   -88.2679700   
910000000     -52.3243100   8.7947590     17.3864000    122.8780000   -20.2033600   -44.4562200   -22.1110400   -89.0589900   
920000000     -51.9203000   6.9031640     17.3853500    122.2510000   -20.2043700   -44.9362400   -22.0779500   -89.8036700   
930000000     -51.4767200   5.3457850     17.3835200    121.6263000   -20.2052800   -45.4150600   -22.0329600   -90.5836300   
940000000     -51.0388800   2.0319810     17.3831300    121.0001000   -20.2061000   -45.8946000   -21.9815800   -91.3018000   
950000000     -50.8401800   -2.2282830    17.3821100    120.3756000   -20.2070600   -46.3740800   -21.9371200   -92.1547900   
960000000     -50.5311000   -5.0639340    17.3804200    119.7498000   -20.2076600   -46.8530400   -21.8901500   -92.9276000   
970000000     -50.0589200   -7.0701910    17.3792500    119.1202000   -20.2083600   -47.3325100   -21.8471300   -93.6252700   
980000000     -49.2813000   -10.5724500   17.3781900    118.4996000   -20.2091100   -47.9159900   -21.7961700   -94.4269800   
990000000     -48.4923000   -12.8186200   17.3771500    117.8732000   -20.2102400   -48.6045600   -21.7579100   -95.1139100   
1000000000    -47.7235400   -15.8903100   17.3757400    117.2442000   -20.2114700   -49.3938800   -21.7115000   -95.8736100   
1025000000    -47.0017000   -18.1676000   17.3732500    115.6768000   -20.2127600   -50.2872500   -21.6211500   -97.6562700   
1050000000    -46.0128500   -20.1706600   17.3707300    114.1181000   -20.2139100   -51.2814400   -21.5279300   -99.1513600   
1075000000    -45.0282700   -23.2076000   17.3665900    112.5440000   -20.2154100   -52.3799000   -21.3904000   -101.2659000  
1100000000    -44.0871000   -26.6730000   17.3673400    110.9821000   -20.2171300   -53.5812200   -21.2910100   -103.1108000  
1125000000    -43.2409800   -28.4998500   17.3602500    109.4111000   -20.2187200   -54.7817500   -21.1804000   -104.8397000  
1150000000    -42.4427000   -31.3553300   17.3582500    107.8445000   -20.2198000   -55.9819000   -21.0603200   -106.8090000  
1175000000    -41.6121100   -32.9471200   17.3587700    106.2859000   -20.2208600   -57.1828400   -20.9446200   -108.5279000  
1200000000    -40.8855000   -34.9743800   17.3536500    104.7266000   -20.2222400   -58.3825400   -20.8247600   -110.0373000  
1225000000    -40.1934400   -37.2282200   17.3495800    103.1659000   -20.2235100   -59.5829200   -20.7189600   -111.8677000  
1250000000    -39.5136900   -39.5944300   17.3487800    101.5878000   -20.2244100   -60.7851200   -20.6259900   -113.6347000  
1275000000    -38.8599600   -41.3943900   17.3474800    100.0255000   -20.2252500   -61.9824700   -20.5349500   -115.1931000  
1300000000    -38.3212300   -43.8323900   17.3459800    98.4621000    -20.2262100   -63.1801800   -20.4166800   -116.9760000  
1325000000    -37.7329100   -45.8541800   17.3423200    96.9009900    -20.2269800   -64.3777300   -20.2859500   -118.7556000  
1350000000    -37.1992300   -48.5366000   17.3393100    95.3196300    -20.2280200   -65.5790000   -20.1852100   -120.2968000  
1375000000    -36.6589500   -50.8118700   17.3359800    93.7670000    -20.2282900   -66.7772100   -20.0965500   -121.9660000  
1400000000    -36.1691100   -53.1147800   17.3324400    92.2215600    -20.2290900   -67.9731400   -19.9834300   -123.3831000  
1425000000    -35.7045500   -55.3879500   17.3317600    90.6481900    -20.2299100   -69.1674900   -19.9181800   -125.1322000  
1450000000    -35.2985600   -58.1487100   17.3314700    89.0737600    -20.2304900   -70.3658800   -19.8361700   -126.6612000  
1475000000    -34.8886000   -60.4996600   17.3290500    87.5117000    -20.2309300   -71.5643600   -19.7566300   -128.2807000  
1500000000    -34.5382900   -63.0827900   17.3269000    85.9911100    -20.2317000   -72.7605200   -19.6820400   -129.7563000  
1525000000    -34.1712600   -65.6849000   17.3241500    84.4126400    -20.2318700   -73.9536800   -19.6189200   -131.2933000  
1550000000    -33.8097100   -68.2798300   17.3215800    82.8590900    -20.2325300   -75.1496500   -19.5102300   -132.8324000  
1575000000    -33.4321500   -70.3324400   17.3206500    81.2998800    -20.2330100   -76.3479400   -19.4412900   -134.4778000  
1600000000    -33.0675300   -72.2460900   17.3180100    79.7330800    -20.2332500   -77.5441400   -19.3882500   -135.9926000  
1625000000    -32.7198300   -73.9952900   17.3167000    78.1862800    -20.2336300   -78.7398700   -19.3032000   -137.3462000  
1650000000    -32.3685700   -75.6118000   17.3142200    76.6295900    -20.2337500   -79.9333000   -19.2253500   -139.0206000  
1675000000    -32.0317000   -77.3276900   17.3110000    75.0700400    -20.2334700   -81.1278600   -19.1366500   -140.8027000  
1700000000    -31.6870200   -78.6430600   17.3099600    73.5007000    -20.2336000   -82.3214600   -19.0464600   -142.3656000  
1725000000    -31.3294000   -80.2906100   17.3068800    71.9480900    -20.2335400   -83.5140500   -18.9487500   -143.9845000  
1750000000    -31.0132800   -81.5970800   17.3048600    70.3726100    -20.2331700   -84.7091800   -18.8674500   -145.6082000  
1775000000    -30.7077700   -82.7361400   17.3037600    68.8043900    -20.2328100   -85.9010700   -18.7554100   -147.0751000  
1800000000    -30.3776400   -83.8697500   17.3022100    67.2702300    -20.2325200   -87.0952000   -18.6822600   -148.6796000  
1825000000    -30.0760800   -85.2436100   17.3008500    65.6859400    -20.2324500   -88.2896700   -18.6098700   -150.4670000  
1850000000    -29.7680400   -86.4167800   17.2962200    64.1334200    -20.2323100   -89.4807200   -18.5109800   -152.1670000  
1875000000    -29.4889200   -87.7540000   17.2964600    62.5637100    -20.2320300   -90.6726500   -18.3996900   -153.9391000  
1900000000    -29.1958800   -88.9286500   17.2923800    60.9983700    -20.2315600   -91.8674500   -18.3296800   -155.3815000  
1925000000    -28.9213900   -90.4643100   17.2881200    59.4548000    -20.2309800   -93.0583000   -18.2387700   -157.0170000  
1950000000    -28.6994200   -92.0392700   17.2895400    57.8856500    -20.2303300   -94.2516600   -18.1783800   -158.4932000  
1975000000    -28.5150400   -93.7161100   17.2862000    56.3335400    -20.2291900   -95.4424100   -18.1174900   -160.0528000  
2000000000    -28.3025600   -95.4817800   17.2861400    54.7718100    -20.2277000   -96.6325700   -18.0482700   -161.6774000  
2025000000    -28.1104300   -97.3403600   17.2854600    53.1997000    -20.2263900   -97.8237800   -18.0181400   -163.1803000  
2050000000    -27.9231700   -99.2545800   17.2835000    51.6562400    -20.2248300   -99.0175200   -17.9339400   -164.6749000  
2075000000    -27.7978800   -101.3054000  17.2816700    50.1026700    -20.2235400   -100.2101000  -17.8937900   -166.1921000  
2100000000    -27.6514200   -103.1955000  17.2809400    48.5260700    -20.2218400   -101.4041000  -17.8299900   -167.5771000  
2125000000    -27.4671800   -105.1741000  17.2782500    46.9616100    -20.2203500   -102.5999000  -17.7792000   -168.9744000  
2150000000    -27.2816800   -107.1415000  17.2781300    45.3957300    -20.2184300   -103.7957000  -17.7404400   -170.3740000  
2175000000    -27.1334200   -108.9040000  17.2755500    43.8496300    -20.2166600   -104.9923000  -17.6700000   -172.0201000  
2200000000    -26.9650900   -110.6534000  17.2749500    42.2679600    -20.2149800   -106.1906000  -17.6117400   -173.6943000  
2225000000    -26.7928700   -112.4632000  17.2722400    40.7101100    -20.2134200   -107.3878000  -17.5361900   -175.0615000  
2250000000    -26.5933600   -113.9817000  17.2719400    39.1408900    -20.2110700   -108.5839000  -17.4645100   -176.6022000  
