!Mini-Circuits Laboratory
!Date: 7/15/2015 at 12:42:15 PM
!S2P DATA File Format
!Type: MMIC Amplifier
!Model: LVA-123+
!S/N: Unit 2
!Fixture: Unit soldered on TB-841+, no port extension
!PIN OUT: PORT 1 - PIN 2, PORT 2 - PIN 5, GROUND - PADDLE, NOT CONNECTED - ALL OTHER PINS
!TEST CONDITIONS: Temp= -45 (Deg C) RF Power= -25.00 (dBm) V limit=5(V) I limit=150(mA) Z=50 OHM
!PROD RUN: Q16010, DATE CODE: 1527
!WAFER/LOT#: BH175P001-02-01EV
!Network Analyzer: PNA-X N5242A S/N 71404 CAL DUE: 12/5/2015
!P.Supply/Multimeter: HP E3632A S/N 63249 CAL DUE: 12/11/2015
!
# Hz  S  dB  R  50
!Frequency    S11 dB        S11 Deg       S21 dB        S21 Deg       S12 dB        S12 Deg       S22 dB        S22 Deg       
10000000      -11.0880400   155.0230000   14.4953500    -175.1094000  -22.5889900   7.5102860     -10.9150300   -9.4138680    
20000000      -11.4711800   148.1992000   14.9929600    -171.4715000  -22.2961100   8.0439450     -11.2825800   -20.9306900   
30000000      -12.0042900   139.9754000   15.6082600    -169.9123000  -21.9524500   8.3311410     -11.8969300   -31.1458400   
40000000      -12.6872400   130.5526000   16.1641600    -169.9214000  -21.5733000   8.3963800     -12.6453300   -39.6611500   
50000000      -13.5178000   120.0590000   16.6189200    -170.8779000  -21.1685000   8.2337860     -13.5088200   -46.9877100   
60000000      -14.4274400   110.4243000   16.9596200    -172.1455000  -20.8149700   7.4014230     -14.4156000   -53.3198400   
70000000      -15.3882500   101.5030000   17.2260200    -173.7731000  -20.5330200   6.1598110     -15.3567400   -58.3145900   
80000000      -16.3857900   93.3190300    17.4203400    -175.4514000  -20.3192600   4.7066950     -16.2974600   -62.2648700   
90000000      -17.4081000   85.8603900    17.5585000    -177.0915000  -20.1638300   3.2047780     -17.2181000   -65.3707400   
100000000     -18.4124400   79.0445700    17.6596500    -178.6534000  -20.0564000   1.7792690     -18.1187200   -67.5338200   
110000000     -19.4003000   72.7271700    17.7310300    179.8702000   -19.9829600   0.4185401     -18.9822200   -69.0760000   
120000000     -20.3717300   66.7206600    17.7803700    178.4699000   -19.9351300   -0.8609293    -19.7829900   -69.9898700   
130000000     -21.3371100   61.0417000    17.8126400    177.1833000   -19.9058200   -2.0531800    -20.5300700   -70.3338600   
140000000     -22.2994400   55.7970400    17.8330800    175.9577000   -19.8898600   -3.1629260    -21.2321500   -70.0997200   
150000000     -23.2434400   50.9922900    17.8431900    174.8215000   -19.8839600   -4.1998480    -21.8788000   -69.6779900   
160000000     -24.1435800   46.4406000    17.8503900    173.7228000   -19.8851800   -5.1688270    -22.4714800   -68.5703600   
170000000     -25.0247100   42.0420200    17.8516000    172.6838000   -19.8913300   -6.0761500    -22.9650300   -67.4932400   
180000000     -25.9027400   37.7880300    17.8502400    171.7024000   -19.9002000   -6.9354560    -23.3903300   -66.1538400   
190000000     -26.7893100   33.8810700    17.8440500    170.7582000   -19.9111800   -7.7482600    -23.7493500   -64.9216000   
200000000     -27.6407300   30.2731400    17.8389900    169.8532000   -19.9238300   -8.5229330    -24.0416000   -63.4761700   
210000000     -28.4814200   26.8445900    17.8289500    168.9963000   -19.9375500   -9.2631080    -24.2930900   -62.4800000   
220000000     -29.2994800   23.3636200    17.8208300    168.1373000   -19.9512900   -9.9739420    -24.5227000   -61.2551200   
230000000     -30.1505000   19.9347200    17.8124400    167.3108000   -19.9647500   -10.6575000   -24.6895900   -60.0978200   
240000000     -31.0391500   16.7193300    17.8033600    166.5087000   -19.9778500   -11.3188900   -24.8655300   -59.1338000   
250000000     -31.9162200   13.8116000    17.7943600    165.7241000   -19.9914500   -11.9545900   -24.9629100   -58.3270100   
260000000     -32.7827700   11.0606400    17.7846200    164.9511000   -20.0046500   -12.5735500   -25.0464300   -57.5836800   
270000000     -33.6926400   8.3002620     17.7759200    164.1956000   -20.0171200   -13.1784200   -25.1141100   -57.0710700   
280000000     -34.6478800   5.4107030     17.7676900    163.4515000   -20.0290100   -13.7713400   -25.1607000   -56.6600000   
290000000     -35.6637100   2.8037010     17.7597300    162.7212000   -20.0403800   -14.3564100   -25.1838400   -56.3558600   
300000000     -36.6806300   0.3356395     17.7530500    161.9949000   -20.0516700   -14.9313000   -25.2158800   -56.2853900   
310000000     -37.7081400   -2.5082970    17.7456900    161.2827000   -20.0624700   -15.4972600   -25.2484500   -56.3212100   
320000000     -38.8224100   -5.6550140    17.7373200    160.5717000   -20.0727900   -16.0563200   -25.2585700   -56.4162600   
330000000     -40.0307200   -9.9800760    17.7313200    159.8651000   -20.0826200   -16.6078800   -25.2477100   -56.5136800   
340000000     -41.3433900   -14.6289900   17.7252400    159.1851000   -20.0919500   -17.1536800   -25.2336300   -56.6544300   
350000000     -42.6824500   -19.6188600   17.7198000    158.4847000   -20.1007600   -17.6929000   -25.2179800   -56.8205600   
360000000     -43.9310200   -25.7204600   17.7134700    157.7941000   -20.1092100   -18.2233700   -25.1715000   -56.9720300   
370000000     -45.1563000   -33.7565600   17.7081700    157.1225000   -20.1169900   -18.7532600   -25.1723700   -57.2315100   
380000000     -46.2514000   -43.6144300   17.7026300    156.4355000   -20.1243500   -19.2798200   -25.1452600   -57.5101200   
390000000     -47.2042000   -54.0714800   17.6968500    155.7684000   -20.1312300   -19.8035000   -25.1092500   -57.6641900   
400000000     -47.9716400   -64.8112100   17.6917400    155.0922000   -20.1377300   -20.3254000   -25.0866300   -57.9772000   
410000000     -48.3715700   -75.3645200   17.6866400    154.4317000   -20.1438800   -20.8437800   -25.0239200   -58.2544100   
420000000     -48.4103300   -86.5685400   17.6825600    153.7611000   -20.1495900   -21.3604900   -24.9920200   -58.4950900   
430000000     -48.3937500   -97.3929100   17.6775500    153.0983000   -20.1549100   -21.8761100   -24.9446900   -58.8696000   
440000000     -48.2205900   -106.5964000  17.6739300    152.4393000   -20.1600500   -22.3898200   -24.8749600   -59.3548200   
450000000     -47.9578300   -113.7884000  17.6704400    151.7781000   -20.1650600   -22.9020900   -24.8280200   -60.0313400   
460000000     -47.5433600   -119.7630000  17.6663300    151.1230000   -20.1699000   -23.4128700   -24.7753700   -60.3799900   
470000000     -46.9942600   -124.7245000  17.6630500    150.4699000   -20.1745200   -23.9210100   -24.7249100   -60.9603300   
480000000     -46.5414400   -129.4378000  17.6596100    149.8080000   -20.1796000   -24.4239600   -24.6698400   -61.5119700   
490000000     -46.2179900   -133.2276000  17.6564600    149.1649000   -20.1843800   -24.9265300   -24.5924500   -62.0848200   
500000000     -45.9233400   -136.2233000  17.6536600    148.5033000   -20.1888200   -25.4279700   -24.5510500   -62.6328200   
510000000     -45.5871800   -138.8331000  17.6537200    147.8267000   -20.1931500   -25.9284600   -24.5014600   -63.4244400   
520000000     -45.2563400   -141.2982000  17.6502100    147.1759000   -20.1971900   -26.4292900   -24.4472100   -63.9433600   
530000000     -45.0173000   -144.3151000  17.6463900    146.5243000   -20.2011100   -26.9286000   -24.3634100   -64.6837800   
540000000     -44.9576800   -147.2097000  17.6450200    145.8773000   -20.2047800   -27.4282600   -24.3194700   -65.3795500   
550000000     -44.8375800   -149.7261000  17.6413500    145.2283000   -20.2076200   -27.9310900   -24.2655500   -66.0481600   
560000000     -44.7663300   -151.8854000  17.6391700    144.5808000   -20.2104100   -28.4327100   -24.2113200   -66.7629800   
570000000     -44.6666000   -153.9872000  17.6378300    143.9354000   -20.2132400   -28.9350500   -24.1602700   -67.4810900   
580000000     -44.6048400   -156.6214000  17.6351500    143.2936000   -20.2158600   -29.4351200   -24.1098400   -68.2013900   
590000000     -44.6876600   -158.9380000  17.6330900    142.6507000   -20.2183600   -29.9332900   -24.0648300   -68.9679500   
600000000     -44.8078000   -160.9178000  17.6309200    142.0065000   -20.2205400   -30.4333700   -23.9906900   -69.7696200   
610000000     -44.7608300   -162.4042000  17.6286700    141.3636000   -20.2225600   -30.9334000   -23.9338100   -70.5845700   
620000000     -44.7779200   -164.3538000  17.6262700    140.7190000   -20.2244900   -31.4342800   -23.8636200   -71.3176900   
630000000     -44.8360400   -166.7499000  17.6254400    140.0824000   -20.2264000   -31.9348800   -23.8105600   -72.1843900   
640000000     -44.8694500   -169.1166000  17.6230100    139.4336000   -20.2281600   -32.4346800   -23.7451300   -73.0144300   
650000000     -45.0398000   -170.9945000  17.6216900    138.7893000   -20.2298800   -32.9351200   -23.6868200   -73.8731200   
660000000     -45.0176800   -172.7326000  17.6198500    138.1483000   -20.2315600   -33.4360900   -23.6332000   -74.7703900   
670000000     -44.9899900   -174.8311000  17.6171600    137.5058000   -20.2333200   -33.9359200   -23.5815200   -75.5474700   
680000000     -45.0876300   -177.1162000  17.6150400    136.8582000   -20.2351700   -34.4357700   -23.5239000   -76.1776400   
690000000     -45.2226600   -178.8275000  17.6140300    136.2209000   -20.2368300   -34.9353100   -23.4717800   -76.9380400   
700000000     -45.2771500   -179.8423000  17.6117900    135.5800000   -20.2383900   -35.4345200   -23.4159500   -77.6996500   
710000000     -45.3083200   179.0186000   17.6099100    134.9405000   -20.2398600   -35.9331400   -23.3706600   -78.4665000   
720000000     -45.2085000   177.7103000   17.6080400    134.2999000   -20.2413700   -36.4312900   -23.3344400   -79.2423400   
730000000     -45.2555400   176.0150000   17.6064700    133.6600000   -20.2427900   -36.9289500   -23.2843100   -79.9660400   
740000000     -45.3008600   174.5705000   17.6051500    133.0210000   -20.2441900   -37.4251300   -23.2454700   -80.7222600   
750000000     -45.3369300   174.0038000   17.6048800    132.3797000   -20.2453100   -37.9220300   -23.2025700   -81.4179200   
760000000     -45.2800900   173.0157000   17.6032800    131.7394000   -20.2466100   -38.4186800   -23.1726900   -82.2033200   
770000000     -45.3060400   171.4607000   17.6015100    131.1004000   -20.2478000   -38.9156600   -23.1299900   -82.9441500   
780000000     -45.3750500   170.0373000   17.5999600    130.4680000   -20.2489500   -39.4117400   -23.0772900   -83.8850900   
790000000     -45.5261600   168.9894000   17.5993100    129.8281000   -20.2498100   -39.9090300   -23.0367600   -84.6925900   
800000000     -45.6667700   168.0385000   17.5974900    129.1920000   -20.2505800   -40.4067900   -22.9949700   -85.5699400   
810000000     -45.7287000   166.8988000   17.5969300    128.5544000   -20.2512800   -40.9058400   -22.9430900   -86.3446300   
820000000     -45.7685500   164.6144000   17.5952500    127.9148000   -20.2520800   -41.4029700   -22.9025100   -87.1760600   
830000000     -45.9138200   162.2093000   17.5943600    127.2810000   -20.2527000   -41.9002200   -22.8555700   -87.9990000   
840000000     -46.0514400   160.1171000   17.5930800    126.6397000   -20.2532600   -42.3968800   -22.8186700   -88.7267500   
850000000     -46.1400700   158.0699000   17.5918900    126.0039000   -20.2538500   -42.8954000   -22.7713900   -89.5971100   
860000000     -46.1462000   155.8554000   17.5902200    125.3620000   -20.2545500   -43.3938400   -22.7359100   -90.3490100   
870000000     -46.1106600   153.0617000   17.5894000    124.7297000   -20.2552000   -43.8913200   -22.6920200   -91.1582000   
880000000     -46.1310300   150.1329000   17.5886000    124.0878000   -20.2558100   -44.3885900   -22.6472400   -92.0751700   
890000000     -46.1210100   147.8971000   17.5883600    123.4561000   -20.2565500   -44.8862400   -22.6181600   -92.9042700   
900000000     -46.1093300   146.1474000   17.5868000    122.8164000   -20.2571900   -45.3833000   -22.5901100   -93.7325600   
910000000     -45.9980400   144.3939000   17.5859100    122.1779000   -20.2580900   -45.8812200   -22.5617300   -94.6426700   
920000000     -45.9212700   142.6113000   17.5856100    121.5447000   -20.2587400   -46.3780700   -22.5325600   -95.4973100   
930000000     -45.9231900   141.0088000   17.5834600    120.9072000   -20.2593200   -46.8743100   -22.4912700   -96.3667100   
940000000     -45.9921600   140.0446000   17.5834300    120.2695000   -20.2598800   -47.3704100   -22.4397900   -97.1824400   
950000000     -45.9812500   140.3243000   17.5828300    119.6370000   -20.2604600   -47.8669600   -22.3971300   -98.1382900   
960000000     -45.9655300   139.6896000   17.5817300    119.0035000   -20.2607700   -48.3633400   -22.3489600   -99.0013100   
970000000     -46.0218500   138.4108000   17.5808300    118.3641000   -20.2611900   -48.8599100   -22.3062300   -99.7804300   
980000000     -46.3197700   138.0658000   17.5800600    117.7318000   -20.2615300   -49.4635800   -22.2526700   -100.6673000  
990000000     -46.6349500   136.5692000   17.5787200    117.0962000   -20.2624400   -50.1765100   -22.2176800   -101.4344000  
1000000000    -47.0440600   136.1647000   17.5775600    116.4570000   -20.2631500   -50.9930700   -22.1718500   -102.2503000  
1025000000    -47.5415500   135.0743000   17.5762600    114.8598000   -20.2635700   -51.9176300   -22.0852400   -104.0815000  
1050000000    -48.3991100   135.8002000   17.5740100    113.2797000   -20.2640800   -52.9490800   -21.9869600   -105.5726000  
1075000000    -49.6415500   135.9317000   17.5718500    111.6858000   -20.2648400   -54.0867200   -21.8377900   -107.6663000  
1100000000    -51.6763000   139.8213000   17.5708000    110.0983000   -20.2653800   -55.3299300   -21.7309700   -109.4316000  
1125000000    -54.9489300   159.9916000   17.5667600    108.5106000   -20.2660200   -56.5719700   -21.6153400   -111.0791000  
1150000000    -58.4759900   -178.2383000  17.5641700    106.9107000   -20.2661200   -57.8142300   -21.4815800   -112.9987000  
1175000000    -60.4393600   -148.4544000  17.5640100    105.3316000   -20.2664000   -59.0589200   -21.3583800   -114.7051000  
1200000000    -61.3856400   -119.9581000  17.5620700    103.7448000   -20.2669800   -60.3042300   -21.2294900   -116.2023000  
1225000000    -61.7523700   -97.0230400   17.5596900    102.1660000   -20.2674700   -61.5466000   -21.1127700   -118.1097000  
1250000000    -61.3709900   -72.9252800   17.5590500    100.5585000   -20.2677200   -62.7916100   -21.0144500   -120.0301000  
1275000000    -59.7213100   -50.3747500   17.5562100    98.9734600    -20.2681200   -64.0314300   -20.9272500   -121.7657000  
1300000000    -56.8199200   -45.7440100   17.5560400    97.3832200    -20.2682700   -65.2748400   -20.8083900   -123.7539000  
1325000000    -53.2382700   -40.1553200   17.5528100    95.7980500    -20.2679900   -66.5188700   -20.6770000   -125.7924000  
1350000000    -51.2089300   -44.7226600   17.5510500    94.1779200    -20.2679000   -67.7633100   -20.5852300   -127.6125000  
1375000000    -49.8909100   -47.3600300   17.5487400    92.6174200    -20.2675300   -69.0029000   -20.5048800   -129.5303000  
1400000000    -48.6846200   -49.1199500   17.5464300    91.0554900    -20.2673600   -70.2408800   -20.3994100   -131.1578000  
1425000000    -47.6282500   -51.6010100   17.5462000    89.4536100    -20.2671500   -71.4808300   -20.3336800   -133.1329000  
1450000000    -46.9079400   -56.7228900   17.5440800    87.8412000    -20.2668600   -72.7261700   -20.2565100   -134.8718000  
1475000000    -45.7497300   -60.5389900   17.5447100    86.2427800    -20.2666800   -73.9690900   -20.1672600   -136.6167000  
1500000000    -44.8636000   -65.6898800   17.5429500    84.7251000    -20.2668900   -75.2083800   -20.0770600   -138.1880000  
1525000000    -43.7394900   -70.3924800   17.5418100    83.1267500    -20.2666400   -76.4469900   -19.9926800   -139.8015000  
1550000000    -42.6686900   -75.0345700   17.5396500    81.5334300    -20.2666300   -77.6874500   -19.8552800   -141.3046000  
1575000000    -41.6107000   -77.5375800   17.5387600    79.9542400    -20.2664100   -78.9297700   -19.7539500   -142.9067000  
1600000000    -40.6670800   -79.6566200   17.5363000    78.3647500    -20.2660200   -80.1691500   -19.6724200   -144.3836000  
1625000000    -39.7233000   -81.0032500   17.5356700    76.7993600    -20.2656100   -81.4074700   -19.5611900   -145.6592000  
1650000000    -38.9477900   -82.4818300   17.5322700    75.2212800    -20.2651300   -82.6449500   -19.4580000   -147.2975000  
1675000000    -38.2434200   -83.9812500   17.5298800    73.6289100    -20.2642700   -83.8825600   -19.3459700   -149.0342000  
1700000000    -37.6122400   -84.7206600   17.5321900    72.0391500    -20.2634300   -85.1201800   -19.2437000   -150.6218000  
1725000000    -37.0232000   -85.6621600   17.5296200    70.4606100    -20.2623900   -86.3576700   -19.1442900   -152.2718000  
1750000000    -36.5772900   -86.4319600   17.5284100    68.8691300    -20.2611700   -87.5983400   -19.0655600   -153.9565000  
1775000000    -36.1847800   -86.9736000   17.5277200    67.2749700    -20.2600800   -88.8362400   -18.9549600   -155.4996000  
1800000000    -35.7487600   -87.1664900   17.5262900    65.6980100    -20.2589600   -90.0767700   -18.8884900   -157.2851000  
1825000000    -35.3951200   -88.0248000   17.5243400    64.1113300    -20.2577900   -91.3154400   -18.8255900   -159.2394000  
1850000000    -35.0576300   -88.6772800   17.5226600    62.5306700    -20.2565400   -92.5511200   -18.7263300   -161.0707000  
1875000000    -34.7719800   -89.7049500   17.5232000    60.9368500    -20.2554400   -93.7885200   -18.6144000   -162.9892000  
1900000000    -34.4874400   -90.7035900   17.5193600    59.3566700    -20.2540600   -95.0274500   -18.5556200   -164.5809000  
1925000000    -34.2150900   -92.3245700   17.5165700    57.7833900    -20.2526000   -96.2645300   -18.4708600   -166.3359000  
1950000000    -33.9922000   -94.1140700   17.5197400    56.1903800    -20.2509300   -97.5008400   -18.4166700   -167.9218000  
1975000000    -33.8303800   -96.2646400   17.5174500    54.6078500    -20.2489700   -98.7359700   -18.3577900   -169.6169000  
2000000000    -33.6071400   -98.4493900   17.5168800    53.0244100    -20.2462900   -99.9715200   -18.2943900   -171.3419000  
2025000000    -33.4106900   -101.0639000  17.5171600    51.4281600    -20.2439900   -101.2097000  -18.2686600   -172.9190000  
2050000000    -33.2242700   -103.6063000  17.5148700    49.8607100    -20.2413000   -102.4475000  -18.1877000   -174.4444000  
2075000000    -33.0857400   -106.5054000  17.5154200    48.2830900    -20.2390000   -103.6867000  -18.1565100   -176.0258000  
2100000000    -32.9033600   -109.2038000  17.5135800    46.6830500    -20.2362300   -104.9278000  -18.1005500   -177.4564000  
2125000000    -32.6802900   -111.6813000  17.5130800    45.0946600    -20.2335100   -106.1697000  -18.0562100   -178.8945000  
2150000000    -32.4593500   -114.2748000  17.5153300    43.5131200    -20.2305800   -107.4105000  -18.0152400   179.6257000   
2175000000    -32.2716600   -116.4956000  17.5133600    41.9390800    -20.2282100   -108.6550000  -17.9434600   177.9015000   
2200000000    -32.0744400   -118.4950000  17.5127700    40.3337900    -20.2254600   -109.8994000  -17.8827300   176.1683000   
2225000000    -31.8434500   -120.6063000  17.5113100    38.7459100    -20.2228600   -111.1424000  -17.8065800   174.7536000   
2250000000    -31.5799000   -121.8851000  17.5112100    37.1535000    -20.2196000   -112.3870000  -17.7292300   173.1158000   
