!Mini-Circuits Laboratory
!Date: 7/15/2015 at 12:42:58 PM
!S2P DATA File Format
!Type: MMIC Amplifier
!Model: LVA-123+
!S/N: Unit 2
!Fixture: Unit soldered on TB-841+, no port extension
!PIN OUT: PORT 1 - PIN 2, PORT 2 - PIN 5, GROUND - PADDLE, NOT CONNECTED - ALL OTHER PINS
!TEST CONDITIONS: Temp= 85 (Deg C) RF Power= -25.00 (dBm) V limit=5(V) I limit=150(mA) Z=50 OHM
!PROD RUN: Q16010, DATE CODE: 1527
!WAFER/LOT#: BH175P001-02-01EV
!Network Analyzer: PNA-X N5242A S/N 71404 CAL DUE: 12/5/2015
!P.Supply/Multimeter: HP E3632A S/N 63249 CAL DUE: 12/11/2015
!
# Hz  S  dB  R  50
!Frequency    S11 dB        S11 Deg       S21 dB        S21 Deg       S12 dB        S12 Deg       S22 dB        S22 Deg       
10000000      -14.7854600   157.8655000   15.3800300    -177.7569000  -21.4983000   3.3425200     -13.7428500   -6.2411790    
20000000      -15.0474100   151.7195000   15.5869200    -176.1981000  -21.3779700   3.6971310     -14.0401400   -15.1684600   
30000000      -15.4016400   144.2230000   15.8467600    -175.3728000  -21.2248500   3.9485800     -14.4716300   -22.6747900   
40000000      -15.8556400   135.5338000   16.1195400    -175.0643000  -21.0448700   4.1017200     -14.9708800   -29.0975000   
50000000      -16.4154200   125.7044000   16.3857300    -175.3070000  -20.8425800   4.1271240     -15.4473300   -34.8700100   
60000000      -17.0022900   116.4692000   16.6118300    -175.7469000  -20.6431600   3.8337880     -16.0414200   -39.9977500   
70000000      -17.6568100   107.8306000   16.8162100    -176.5991000  -20.4636700   3.2639010     -16.7054000   -44.5874000   
80000000      -18.3742700   99.7167800    16.9856000    -177.6577000  -20.3078400   2.4874170     -17.4105200   -48.4525400   
90000000      -19.1236500   92.2222900    17.1207100    -178.8174000  -20.1764800   1.5733790     -18.1510100   -51.6138000   
100000000     -19.9060000   85.3805100    17.2257700    179.9830000   -20.0727100   0.6199045     -18.8849800   -54.1671800   
110000000     -20.7038000   79.0322000    17.3070400    178.7672000   -19.9922900   -0.3735080    -19.6108900   -55.9502900   
120000000     -21.5166000   73.1831500    17.3659800    177.5892000   -19.9320800   -1.3696340    -20.3150200   -57.1862600   
130000000     -22.3507200   67.7442500    17.4100500    176.4486000   -19.8889100   -2.3462850    -20.9900400   -58.0386700   
140000000     -23.1981900   62.7762300    17.4405900    175.3349000   -19.8593700   -3.2912150    -21.6086100   -58.3911900   
150000000     -24.0483500   58.2801600    17.4595600    174.2832000   -19.8407700   -4.2012310    -22.2036300   -58.2406500   
160000000     -24.8899900   54.1509300    17.4748700    173.2602000   -19.8306100   -5.0698980    -22.7063300   -57.7526900   
170000000     -25.7127600   50.1097700    17.4820400    172.2775000   -19.8268000   -5.8975730    -23.1612700   -57.0159400   
180000000     -26.5394500   46.4167500    17.4846600    171.3413000   -19.8268100   -6.6916530    -23.5429800   -56.0670500   
190000000     -27.3643400   42.9470900    17.4851500    170.4327000   -19.8305500   -7.4499830    -23.8634400   -55.0533900   
200000000     -28.1745900   39.7265100    17.4821500    169.5469000   -19.8368200   -8.1803460    -24.0970700   -53.9760400   
210000000     -28.9661400   36.6714400    17.4751000    168.7065000   -19.8446500   -8.8824460    -24.3340900   -53.0772100   
220000000     -29.7345800   33.6070700    17.4697500    167.8791000   -19.8537300   -9.5597710    -24.5065500   -52.0915000   
230000000     -30.5124700   30.4969100    17.4633100    167.0740000   -19.8630200   -10.2138800   -24.6012600   -51.1085100   
240000000     -31.3139100   27.6588200    17.4566300    166.2769000   -19.8727000   -10.8482500   -24.6943900   -50.2573400   
250000000     -32.0854500   24.7966300    17.4490500    165.5147000   -19.8834500   -11.4592700   -24.7305000   -49.4866400   
260000000     -32.8407700   22.0995900    17.4397600    164.7597000   -19.8940600   -12.0551400   -24.7348000   -48.9418200   
270000000     -33.5659800   19.3073800    17.4317100    164.0134000   -19.9045400   -12.6361100   -24.7407000   -48.3424300   
280000000     -34.2963200   16.5802100    17.4231600    163.2806000   -19.9147800   -13.2060800   -24.7041500   -47.9880300   
290000000     -35.0189600   13.9726400    17.4158100    162.5558000   -19.9245100   -13.7683400   -24.6667300   -47.5527000   
300000000     -35.6957600   11.5873700    17.4095000    161.8497000   -19.9344700   -14.3202400   -24.6091700   -47.2986900   
310000000     -36.3330900   9.0600050     17.4020700    161.1437000   -19.9441000   -14.8639800   -24.5811500   -47.0867700   
320000000     -36.9353400   6.4586980     17.3941200    160.4386000   -19.9535500   -15.3993800   -24.5270200   -47.0607400   
330000000     -37.5143100   3.8109160     17.3878500    159.7500000   -19.9627600   -15.9287300   -24.4721300   -47.0673400   
340000000     -38.0972500   1.2890760     17.3805900    159.0688000   -19.9716300   -16.4518500   -24.4013400   -47.1121400   
350000000     -38.6164400   -1.1909200    17.3751300    158.3942000   -19.9801200   -16.9687400   -24.3226700   -47.2071100   
360000000     -39.0928300   -3.8488740    17.3684800    157.7164000   -19.9882400   -17.4790200   -24.2657700   -47.3406200   
370000000     -39.5419600   -6.3990640    17.3624200    157.0448000   -19.9957000   -17.9867200   -24.1707900   -47.5337300   
380000000     -39.9621000   -8.7092090    17.3579300    156.3758000   -20.0027300   -18.4911300   -24.1097800   -47.7392300   
390000000     -40.4104800   -10.6055600   17.3521400    155.7171000   -20.0092300   -18.9940800   -24.0201200   -48.0645200   
400000000     -40.8173500   -12.3026900   17.3467700    155.0432000   -20.0153900   -19.4943100   -23.9578600   -48.5140100   
410000000     -41.1640800   -13.9857000   17.3414300    154.3873000   -20.0213100   -19.9927100   -23.8754500   -48.9690700   
420000000     -41.5422300   -15.6853800   17.3368600    153.7273000   -20.0270200   -20.4896400   -23.8159300   -49.3407600   
430000000     -41.9389100   -16.9822000   17.3329700    153.0717000   -20.0324800   -20.9849900   -23.7292700   -49.8481800   
440000000     -42.3348600   -17.8706300   17.3285100    152.4238000   -20.0377300   -21.4781500   -23.6738600   -50.4255000   
450000000     -42.6925700   -18.7889900   17.3234300    151.7709000   -20.0427600   -21.9704700   -23.6242300   -50.9301500   
460000000     -43.0118300   -20.0639300   17.3191300    151.1211000   -20.0476600   -22.4598900   -23.5608900   -51.4600200   
470000000     -43.3072600   -21.5422500   17.3151100    150.4724000   -20.0524000   -22.9479600   -23.5028200   -52.0304400   
480000000     -43.6609300   -22.9747000   17.3112900    149.8252000   -20.0572900   -23.4303000   -23.4665700   -52.6838800   
490000000     -43.9462700   -24.2208300   17.3083800    149.1797000   -20.0620600   -23.9105100   -23.4229700   -53.2749900   
500000000     -44.2240200   -25.1152700   17.3047400    148.5411000   -20.0668100   -24.3892400   -23.3762100   -53.8357000   
510000000     -44.4879400   -26.6755100   17.3034100    147.8707000   -20.0713300   -24.8663300   -23.3535700   -54.5096600   
520000000     -44.7825500   -27.6170600   17.3014200    147.2292000   -20.0757300   -25.3439100   -23.3111000   -55.1843000   
530000000     -45.0482700   -27.9732200   17.2983400    146.5845000   -20.0800100   -25.8211700   -23.2537000   -55.9057200   
540000000     -45.3276300   -27.8919000   17.2947800    145.9453000   -20.0841500   -26.2977400   -23.2254500   -56.6223400   
550000000     -45.5111700   -27.5755800   17.2908200    145.3055000   -20.0874600   -26.7775400   -23.1830200   -57.2405000   
560000000     -45.6914700   -26.6435600   17.2874100    144.6702000   -20.0905600   -27.2586500   -23.1365300   -58.0421100   
570000000     -45.8470800   -26.0853400   17.2848200    144.0322000   -20.0934700   -27.7393500   -23.0923400   -58.7563600   
580000000     -46.0209300   -24.8605900   17.2820000    143.3929000   -20.0963300   -28.2204400   -23.0515100   -59.4400800   
590000000     -46.2126000   -23.6692000   17.2803400    142.7512000   -20.0990100   -28.7005100   -23.0241000   -60.2429600   
600000000     -46.4570900   -22.4683600   17.2770800    142.1127000   -20.1015600   -29.1805600   -22.9741300   -61.0491400   
610000000     -46.7179100   -21.3850100   17.2758600    141.4749000   -20.1038500   -29.6617600   -22.9447900   -61.8281700   
620000000     -47.0327900   -19.9098100   17.2726200    140.8387000   -20.1062400   -30.1419000   -22.9213400   -62.6814800   
630000000     -47.3507700   -19.0525000   17.2700600    140.2050000   -20.1085400   -30.6207900   -22.8911100   -63.4774200   
640000000     -47.6741700   -17.5673600   17.2669800    139.5604000   -20.1106800   -31.0990000   -22.8765800   -64.2845700   
650000000     -47.8567800   -16.5373500   17.2643200    138.9269000   -20.1127700   -31.5769300   -22.8500500   -65.0204500   
660000000     -48.0193300   -16.1127400   17.2628700    138.2962000   -20.1149300   -32.0540800   -22.8177400   -65.8409800   
670000000     -48.0970500   -15.6087400   17.2608900    137.6635000   -20.1170600   -32.5305400   -22.7950700   -66.6297300   
680000000     -48.0986800   -14.9063700   17.2590300    137.0331000   -20.1190700   -33.0051100   -22.7452600   -67.4172600   
690000000     -47.9864500   -14.3244500   17.2572700    136.3976000   -20.1211100   -33.4810900   -22.7120000   -68.2282200   
700000000     -47.8229800   -13.8137200   17.2536300    135.7666000   -20.1230200   -33.9573100   -22.6766300   -69.0256800   
710000000     -47.6075900   -14.0871500   17.2520700    135.1302000   -20.1250500   -34.4337200   -22.6391200   -69.8333300   
720000000     -47.4596400   -13.7877300   17.2504600    134.5017000   -20.1269900   -34.9103600   -22.5944100   -70.6246600   
730000000     -47.2005000   -13.0427300   17.2487200    133.8678000   -20.1287400   -35.3863500   -22.5453400   -71.4454200   
740000000     -46.8857200   -12.2384800   17.2466300    133.2324000   -20.1305600   -35.8641100   -22.4997200   -72.2726800   
750000000     -46.5448600   -11.9289400   17.2451100    132.6020000   -20.1322000   -36.3415200   -22.4506700   -73.1426200   
760000000     -46.3178600   -11.8759800   17.2419700    131.9679000   -20.1337700   -36.8181100   -22.4024800   -73.8949800   
770000000     -46.0977900   -11.3487000   17.2412000    131.3334000   -20.1353100   -37.2942200   -22.3606700   -74.7007700   
780000000     -45.8224600   -10.2837900   17.2388400    130.6930000   -20.1366400   -37.7705200   -22.3044600   -75.5363900   
790000000     -45.5302400   -10.0823600   17.2369600    130.0572000   -20.1380200   -38.2464000   -22.2732500   -76.2882700   
800000000     -45.2671100   -10.1957200   17.2366700    129.4222000   -20.1394500   -38.7227200   -22.2272200   -77.0971400   
810000000     -45.0525600   -10.7023000   17.2350300    128.7922000   -20.1407700   -39.1981000   -22.1835100   -77.8221600   
820000000     -44.8302500   -11.1789300   17.2323500    128.1631000   -20.1422300   -39.6725200   -22.1356900   -78.6466000   
830000000     -44.4885300   -11.6719000   17.2313100    127.5371000   -20.1435600   -40.1470400   -22.0966700   -79.3396600   
840000000     -44.0984100   -12.7991000   17.2291300    126.9091000   -20.1448700   -40.6218800   -22.0472500   -80.0057100   
850000000     -43.7511900   -14.4292900   17.2278000    126.2762000   -20.1461600   -41.0961000   -21.9976700   -80.7646600   
860000000     -43.3862400   -15.5085200   17.2265600    125.6447000   -20.1474200   -41.5701800   -21.9438000   -81.4320500   
870000000     -43.0065700   -16.6387600   17.2251300    125.0175000   -20.1486100   -42.0435100   -21.8878200   -82.0915500   
880000000     -42.5870200   -17.7019200   17.2230100    124.3929000   -20.1497600   -42.5167400   -21.8204700   -82.7453800   
890000000     -42.1555000   -18.7618400   17.2214900    123.7617000   -20.1510500   -42.9917100   -21.7791500   -83.4645200   
900000000     -41.7486000   -19.6550500   17.2196100    123.1337000   -20.1523300   -43.4669000   -21.7216200   -84.1515200   
910000000     -41.3735100   -20.5183400   17.2169800    122.4991000   -20.1535900   -43.9423400   -21.6642300   -84.8973600   
920000000     -40.9827500   -21.0368600   17.2165700    121.8701000   -20.1547500   -44.4173000   -21.6145400   -85.6550300   
930000000     -40.6208600   -21.7864200   17.2152100    121.2329000   -20.1558700   -44.8932200   -21.5610000   -86.3040000   
940000000     -40.2717100   -22.3698700   17.2141700    120.6065000   -20.1569800   -45.3702900   -21.5096500   -87.0988700   
950000000     -39.9723900   -23.1326500   17.2121400    119.9722000   -20.1579500   -45.8462200   -21.4619800   -87.8108300   
960000000     -39.7251300   -23.7487700   17.2112400    119.3426000   -20.1587300   -46.3221700   -21.4187200   -88.5534100   
970000000     -39.4918300   -24.5497400   17.2096700    118.7136000   -20.1596500   -46.7983900   -21.3739200   -89.3140700   
980000000     -39.1700000   -25.4117500   17.2078500    118.0769000   -20.1607000   -47.3763200   -21.3316600   -90.0242100   
990000000     -38.8924100   -26.7492800   17.2064100    117.4476000   -20.1622600   -48.0541600   -21.2954000   -90.7887500   
1000000000    -38.5233500   -28.1544000   17.2049600    116.8209000   -20.1637400   -48.8301800   -21.2599400   -91.5529600   
1025000000    -38.1128100   -29.8291100   17.2021700    115.2562000   -20.1655400   -49.7079300   -21.1709200   -93.2263300   
1050000000    -37.6752800   -31.5537700   17.1978600    113.6995000   -20.1674700   -50.6885500   -21.0825200   -94.8539400   
1075000000    -37.1732600   -33.2647200   17.1941000    112.1252000   -20.1695400   -51.7699800   -20.9532800   -96.6355400   
1100000000    -36.6612400   -35.3044100   17.1918300    110.5632000   -20.1713000   -52.9510800   -20.8345000   -98.4012200   
1125000000    -36.2065400   -37.0798500   17.1893600    108.9832000   -20.1730200   -54.1294800   -20.7506200   -100.0771000  
1150000000    -35.6439800   -38.7149200   17.1857600    107.4110000   -20.1746400   -55.3129700   -20.6393100   -102.0035000  
1175000000    -35.1414800   -40.1980500   17.1841700    105.8374000   -20.1761100   -56.4973600   -20.5118300   -103.7387000  
1200000000    -34.6583900   -41.5750100   17.1803900    104.2710000   -20.1778100   -57.6807600   -20.4200200   -105.3456000  
1225000000    -34.1362700   -43.0074200   17.1770200    102.6947000   -20.1792700   -58.8625800   -20.2886200   -107.0349000  
1250000000    -33.6610700   -44.6449900   17.1739700    101.1203000   -20.1805300   -60.0447200   -20.1769000   -108.7480000  
1275000000    -33.1738500   -46.1216000   17.1728600    99.5494900    -20.1818300   -61.2296900   -20.0492700   -110.5183000  
1300000000    -32.7172000   -47.6179500   17.1680500    97.9768100    -20.1833800   -62.4133100   -19.9150300   -112.2736000  
1325000000    -32.3275800   -49.2031100   17.1637800    96.4036300    -20.1846700   -63.5947200   -19.8058200   -114.1210000  
1350000000    -31.9387500   -50.9312000   17.1612600    94.8535400    -20.1863800   -64.7803000   -19.7083200   -115.6524000  
1375000000    -31.5690700   -52.7540100   17.1602900    93.2339900    -20.1876400   -65.9683500   -19.6097800   -117.2237000  
1400000000    -31.2278400   -54.6427300   17.1571300    91.6833400    -20.1893400   -67.1528300   -19.5107700   -118.7580000  
1425000000    -30.8916800   -56.4638400   17.1530200    90.1289500    -20.1909000   -68.3362800   -19.3813900   -120.2299000  
1450000000    -30.5985100   -58.4815200   17.1502100    88.5786400    -20.1924600   -69.5161300   -19.2825800   -121.9491000  
1475000000    -30.2981600   -60.7173600   17.1462200    86.9708000    -20.1934200   -70.7009400   -19.2021700   -123.4213000  
1500000000    -29.9932700   -63.1188400   17.1446800    85.4071400    -20.1943000   -71.8825100   -19.1157400   -124.8899000  
1525000000    -29.7119800   -65.5950900   17.1423200    83.8345500    -20.1948600   -73.0606900   -19.0626200   -126.2291000  
1550000000    -29.4049600   -68.0424300   17.1394400    82.2664700    -20.1954600   -74.2337800   -19.0049600   -127.5664000  
1575000000    -29.1142000   -70.4296300   17.1377300    80.7097300    -20.1955600   -75.4098700   -18.9320800   -128.9289000  
1600000000    -28.8213100   -72.8564500   17.1327500    79.1479900    -20.1960700   -76.5896700   -18.8552900   -130.3003000  
1625000000    -28.5051900   -75.1503900   17.1327200    77.5659700    -20.1964500   -77.7693600   -18.7694300   -131.8014000  
1650000000    -28.2056500   -77.3239700   17.1311100    75.9990100    -20.1968800   -78.9474700   -18.7176900   -133.2359000  
1675000000    -27.8996800   -79.1658800   17.1277100    74.4315800    -20.1972200   -80.1281700   -18.6304300   -134.7098000  
1700000000    -27.6028400   -81.0197700   17.1240000    72.8480700    -20.1979600   -81.3105400   -18.5595800   -136.1891000  
1725000000    -27.3098400   -82.7059900   17.1216200    71.2893900    -20.1979200   -82.4945900   -18.4879100   -137.5351000  
1750000000    -27.0018000   -84.2377500   17.1195600    69.7053500    -20.1984200   -83.6790400   -18.3974100   -139.1421000  
1775000000    -26.7138000   -85.6959800   17.1175100    68.1351900    -20.1987000   -84.8613800   -18.3144800   -140.6767000  
1800000000    -26.4456300   -87.0762100   17.1119800    66.5585400    -20.1992800   -86.0471400   -18.2159500   -142.3561000  
1825000000    -26.1743200   -88.3576700   17.1089400    64.9643400    -20.1996900   -87.2307400   -18.1313200   -144.0574000  
1850000000    -25.9266400   -89.6870400   17.1075700    63.4031200    -20.2002500   -88.4111800   -18.0358400   -145.6094000  
1875000000    -25.6831100   -90.8744200   17.1044300    61.8318400    -20.1999700   -89.5897900   -17.9519600   -147.1596000  
1900000000    -25.4487000   -92.1611700   17.1023300    60.2487200    -20.2006400   -90.7676700   -17.8542400   -148.8183000  
1925000000    -25.2520400   -93.4331400   17.1002400    58.6916900    -20.2003200   -91.9489700   -17.7925900   -150.2100000  
1950000000    -25.0497300   -94.7926100   17.0977300    57.0972400    -20.2000200   -93.1284700   -17.7143200   -151.8953000  
1975000000    -24.8603700   -96.1208800   17.0948700    55.5329100    -20.1992900   -94.3060200   -17.6334100   -153.5607000  
2000000000    -24.6814600   -97.6236600   17.0910100    53.9670700    -20.1989400   -95.4823500   -17.5654900   -155.0811000  
2025000000    -24.5064400   -99.1329500   17.0913600    52.3853800    -20.1979500   -96.6627100   -17.5077200   -156.5752000  
2050000000    -24.3306000   -100.7162000  17.0883700    50.8157300    -20.1973300   -97.8420900   -17.4516900   -157.9234000  
2075000000    -24.1855000   -102.3537000  17.0860700    49.2572000    -20.1961300   -99.0225800   -17.3915900   -159.4028000  
2100000000    -24.0164000   -104.0688000  17.0804300    47.6805800    -20.1955600   -100.2012000  -17.3399100   -160.6837000  
2125000000    -23.8479200   -105.7222000  17.0816600    46.1202400    -20.1945600   -101.3758000  -17.2834000   -162.1457000  
2150000000    -23.6679700   -107.3987000  17.0769400    44.5619400    -20.1940200   -102.5525000  -17.2217000   -163.6314000  
2175000000    -23.4870300   -109.0419000  17.0762700    42.9843000    -20.1931900   -103.7291000  -17.1716300   -165.0972000  
2200000000    -23.3067300   -110.6426000  17.0712200    41.4057800    -20.1929600   -104.9024000  -17.1005900   -166.4759000  
2225000000    -23.1074400   -112.1497000  17.0690500    39.8295400    -20.1925300   -106.0783000  -17.0167400   -167.8455000  
2250000000    -22.8979700   -113.5501000  17.0655700    38.2688100    -20.1921100   -107.2518000  -16.9457300   -169.3740000  
