# MHz S MA R 50

7000	0.99389782	-82.967223	0.0016214145	120.86975	0.0016214145	120.86975	0.99389892	-82.962003	
7013.392857	0.99379393	-83.135497	0.0015944805	120.81304	0.0015944805	120.81304	0.99379118	-83.131994	
7026.785714	0.99368049	-83.297877	0.0015756674	121.07038	0.0015756674	121.07038	0.99368516	-83.295587	
7040.178571	0.99358186	-83.456855	0.0015679431	121.49992	0.0015679431	121.49992	0.99357649	-83.454498	
7053.571429	0.99348651	-83.612934	0.0015717588	121.91843	0.0015717588	121.91843	0.99348985	-83.611215	
7066.964286	0.99340288	-83.766749	0.0015851798	122.17233	0.0015851798	122.17233	0.99339511	-83.765539	
7080.357143	0.99331964	-83.918806	0.001605064	122.18002	0.001605064	122.18002	0.9933207	-83.918232	
7093.75	0.99324546	-84.06974	0.0016283115	121.92906	0.0016283115	121.92906	0.9932465	-84.069166	
7107.142857	0.99317919	-84.220121	0.0016525538	121.44915	0.0016525538	121.44915	0.99318019	-84.219548	
7133.928572	0.99306285	-84.517496	0.0016986826	119.98381	0.0016986826	119.98381	0.99306313	-84.517324	
7160.714286	0.99295642	-84.812874	0.0017384117	118.1071	0.0017384117	118.1071	0.99294637	-84.81288	
7187.5	0.99285893	-85.106542	0.0017716042	116.0242	0.0017716042	116.0242	0.99285867	-85.106715	
7214.285715	0.99276944	-85.398844	0.0017994783	113.84306	0.0017994783	113.84306	0.99276912	-85.399074	
7267.857143	0.99261178	-85.980332	0.0018441811	109.37146	0.0018441811	109.37146	0.99261129	-85.980735	
7321.428572	0.99246961	-86.558694	0.001879829	104.86352	0.001879829	104.86352	0.99246913	-86.559155	
7375	0.99234075	-87.134538	0.0019104243	100.35379	0.0019104243	100.35379	0.9923403	-87.135057	
7428.571429	0.99222358	-87.708305	0.0019381066	95.844564	0.0019381066	95.844564	0.99222318	-87.708882	
7482.142858	0.99210687	-88.280245	0.0019640666	91.33148	0.0019640666	91.33148	0.99210657	-88.280822	
7535.714286	0.99199966	-88.850426	0.0019889987	86.809843	0.0019889987	86.809843	0.99199944	-88.851061	
7589.285715	0.99189099	-89.419056	0.0020133254	82.276024	0.0020133254	82.276024	0.99189087	-89.419691	
7642.857143	0.99179003	-89.986194	0.0020373118	77.727564	0.0020373118	77.727564	0.99179003	-89.986798	
7696.428572	0.991686	-90.551869	0.0020611281	73.162982	0.0020611281	73.162982	0.9916861	-90.552475	
7750	0.99158813	-91.116127	0.0020848842	68.581546	0.0020848842	68.581546	0.99158835	-91.116762	
7803.571429	0.9914857	-91.679034	0.0021086507	63.983084	0.0021086507	63.983084	0.99148599	-91.679611	
7857.142857	0.99139794	-92.240567	0.0021324715	59.36783	0.0021324715	59.36783	0.99139833	-92.241144	
7910.714286	0.99129413	-92.800782	0.0021563721	54.736316	0.0021563721	54.736316	0.99129467	-92.801417	
7964.285714	0.9912036	-93.359716	0.0021803649	50.089278	0.0021803649	50.089278	0.99120419	-93.360293	
8017.857143	0.99110553	-93.917306	0.0022044527	45.427595	0.0022044527	45.427595	0.99110628	-93.917941	
8071.428572	0.99101932	-94.473643	0.0022286319	40.752238	0.0022286319	40.752238	0.99101021	-94.474323	
8125	0.99092422	-95.028746	0.002252894	36.06423	0.002252894	36.06423	0.99092519	-95.02938	
8178.571429	0.99082946	-95.582569	0.0022772271	31.364618	0.0022772271	31.364618	0.99083053	-95.583202	
8232.142857	0.99073396	-96.134931	0.0023016173	26.654446	0.0023016173	26.654446	0.99073503	-96.135506	
8285.714286	0.99063743	-96.686117	0.0023260495	21.93474	0.0023260495	21.93474	0.9906386	-96.686691	
8339.285715	0.99054946	-97.236221	0.0023505081	17.206496	0.0023505081	17.206496	0.99055072	-97.236795	
8392.857143	0.99045957	-97.785357	0.0023749777	12.470662	0.0023749777	12.470662	0.99046092	-97.78593	
8446.428572	0.99036583	-98.333008	0.0023994438	7.7281371	0.0023994438	7.7281371	0.99036728	-98.333581	
8500	0.99026748	-98.87923	0.0024238927	2.9797635	0.0024238927	2.9797635	0.99027057	-98.880373	
8553.571429	0.99017532	-99.424556	0.0024483127	-1.7736791	0.0024483127	-1.7736791	0.99017859	-99.425698	
8607.142857	0.99008887	-99.969026	0.0024726935	-6.5314742	0.0024726935	-6.5314742	0.99009061	-99.969596	
8660.714286	0.98999424	-100.51165	0.002497027	-11.29297	0.002497027	-11.29297	0.98999607	-100.51222	
8714.285714	0.98989433	-101.05362	0.0025213075	-16.057581	0.0025213075	-16.057581	0.98989625	-101.05419	
8821.428571	0.98971018	-102.13365	0.0025696977	-25.59412	0.0025696977	-25.59412	0.98971228	-102.13422	
8928.571429	0.98951993	-103.20906	0.0026178639	-35.137656	0.0026178639	-35.137656	0.98952221	-103.20962	
9035.714286	0.98933598	-104.27938	0.0026658421	-44.685682	0.0026658421	-44.685682	0.98932875	-104.28009	
9142.857143	0.9891341	-105.3453	0.0027136982	-54.236524	0.0027136982	-54.236524	0.9891394	-105.34641	
9250	0.98893883	-106.40674	0.0027615192	-63.789229	0.0027615192	-63.789229	0.98894166	-106.40729	
9357.142857	0.98869568	-107.46254	0.0028093996	-73.343437	0.0028093996	-73.343437	0.98865099	-107.46396	
9464.285714	0.98852281	-108.52183	0.0028574242	-82.899248	0.0028574242	-82.899248	0.98853547	-108.52219	
9571.428571	0.98834846	-109.56905	0.0029056483	-92.457075	0.0029056483	-92.457075	0.9883518	-109.56959	
9678.571428	0.9881508	-110.61285	0.0029540736	-102.01747	0.0029540736	-102.01747	0.98814496	-110.61359	
9785.714286	0.98794152	-111.65268	0.0030026228	-111.58096	0.0030026228	-111.58096	0.98793592	-111.65344	
9892.857143	0.98773147	-112.68796	0.0030511125	-121.14777	0.0030511125	-121.14777	0.98772996	-112.68925	
10000	0.98751119	-113.71978	0.0030992269	-130.71759	0.0030992269	-130.71759	0.98751923	-113.72084	
! NOISE PARAMETERS
7000	17.399801	0.99404639	82.95807	2581.8273
7013.392857	17.701689	0.99393426	83.126768	2709.4124
7026.785714	17.963729	0.99381287	83.289385	2814.2809
7040.178571	18.15321	0.99370763	83.448441	2883.3879
7053.571429	18.257913	0.99360821	83.604452	2900.6296
7066.964286	18.304082	0.99352274	83.758147	2885.8968
7080.357143	18.299041	0.99344031	83.910047	2839.4411
7093.75	18.268874	0.99336884	84.060848	2782.6882
7107.142857	18.223086	0.99330686	84.211134	2721.4579
7133.928572	18.124929	0.99320202	84.508472	2607.1529
7160.714286	18.05554	0.99310848	84.804039	2519.002
7187.5	17.997202	0.99302446	85.098046	2443.8271
7214.285715	17.962943	0.99294765	85.390833	2386.865
7267.857143	17.925316	0.99281264	85.973575	2299.8634
7321.428572	17.915408	0.99268879	86.553456	2234.3261
7375	17.916054	0.99257385	87.130998	2179.0607
7428.571429	17.919027	0.99246618	87.706587	2128.7327
7482.142858	17.931687	0.99235415	88.280435	2083.3085
7535.714286	17.940612	0.99224705	88.852572	2038.6953
7589.285715	17.956209	0.99213351	89.423165	1996.7044
7642.857143	17.967134	0.992023	89.99224	1954.4881
7696.428572	17.984375	0.99190447	90.55978	1914.2749
7750	17.997392	0.99178757	91.1258	1873.7043
7803.571429	18.017116	0.99166151	91.690315	1835.0433
7857.142857	18.023183	0.99154629	92.25329	1794.1222
7910.714286	18.046809	0.99141102	92.814701	1757.2942
7964.285714	18.057864	0.99128605	93.374595	1718.5837
8017.857143	18.076831	0.9911509	93.932849	1682.0726
8071.428572	18.08922	0.9910258	94.489542	1645.9593
8125	18.100447	0.99089073	95.044693	1608.6141
8178.571429	18.115563	0.99075576	95.598207	1573.7781
8232.142857	18.1305	0.99062072	96.149917	1539.8433
8285.714286	18.145067	0.99048624	96.700109	1506.8016
8339.285715	18.150399	0.99036261	97.248903	1473.1812
8392.857143	18.155785	0.99024039	97.796417	1440.6602
8446.428572	18.162618	0.99011851	98.342159	1409.499
8500	18.170549	0.98999699	98.886225	1379.5207
8553.571429	18.17137	0.98988705	99.429195	1349.6086
8607.142857	18.165624	0.98978879	99.971154	1319.9061
8660.714286	18.163609	0.98968902	100.51116	1291.8091
8714.285714	18.163383	0.98959088	101.05047	1265.0313
8821.428571	18.142322	0.98943041	102.12528	1211.5156
8928.571429	18.11697	0.9892904	103.196	1161.1987
9035.714286	18.082711	0.98917965	104.26263	1113.4991
9142.857143	18.048465	0.98906808	105.32621	1067.3774
9250	18.012164	0.98897279	106.38694	1023.8945
9357.142857	18.030706	0.98882935	107.44394	990.04947
9464.285714	17.957765	0.98875014	108.50583	942.3248
9571.428571	17.918472	0.98865219	109.5573	902.2035
9678.571428	17.906085	0.98850625	110.60658	865.18515
9785.714286	17.909749	0.98831893	111.65263	829.56657
9892.857143	17.924462	0.98809825	112.69432	795.06885
10000	17.956695	0.98783436	113.73218	762.28494
