!  1-Port S-parameters saved by WinCal
! VAR MeasName=S-Parameters (CALIBRATED_DATA) read from VNA (N5247B)
! VAR MeasDate=4/19/2019 9:38:54 AM
! VAR NAME=Measurement 3
! VAR FILENAME=LTC5597_vcc_3p3v_en_3p3_sn8_25c.S1P
! VAR DATE=4/19/2019 9:38:55 AM
! VAR PHYS_PORTS=1
!
# Hz S DB R 50
10000000.000 -2.8320871037E+001 +1.1601743055E+002 
344950000.000 -3.1388420090E+001 +1.7947824695E+002 
679900000.000 -3.0477585072E+001 -1.7900695191E+002 
1014850000.000 -2.8831389367E+001 +1.7794388304E+002 
1349800000.000 -2.7021808508E+001 +1.7019818862E+002 
1684750000.000 -2.5291607083E+001 +1.5953177220E+002 
2019700000.000 -2.3872540391E+001 +1.4673303361E+002 
2354650000.000 -2.2560016408E+001 +1.3402601656E+002 
2689600000.000 -2.1414867441E+001 +1.2042322001E+002 
3024550000.000 -2.0401998135E+001 +1.0676315122E+002 
3359500000.000 -1.9542170560E+001 +9.3087609538E+001 
3694450000.000 -1.8746295279E+001 +7.9445373873E+001 
4029400000.000 -1.8013116693E+001 +6.5598842254E+001 
4364350000.000 -1.7342803791E+001 +5.1267214401E+001 
4699300000.000 -1.6753461531E+001 +3.6730727374E+001 
5034250000.000 -1.6211356696E+001 +2.2179582460E+001 
5369200000.000 -1.5756715692E+001 +7.2601055425E+000 
5704150000.000 -1.5330446991E+001 -7.9016049976E+000 
6039100000.000 -1.4940751354E+001 -2.3397450627E+001 
6374050000.000 -1.4574635621E+001 -3.9111787609E+001 
6709000000.000 -1.4236883156E+001 -5.4789809083E+001 
7043950000.000 -1.3950750997E+001 -7.0629517707E+001 
7378900000.000 -1.3673179580E+001 -8.6631264452E+001 
7713850000.000 -1.3390715981E+001 -1.0276967181E+002 
8048800000.000 -1.3146641425E+001 -1.1871640133E+002 
8383750000.000 -1.2881186518E+001 -1.3483800110E+002 
8718700000.000 -1.2629937816E+001 -1.5089516715E+002 
9053650000.000 -1.2394241308E+001 -1.6683435576E+002 
9388600000.000 -1.2145839362E+001 +1.7705458665E+002 
9723550000.000 -1.1894757448E+001 +1.6122930375E+002 
10058500000.000 -1.1654445591E+001 +1.4540497947E+002 
10393450000.000 -1.1427943647E+001 +1.2958487083E+002 
10728400000.000 -1.1192267350E+001 +1.1370624675E+002 
11063350000.000 -1.1000942295E+001 +9.8077162383E+001 
11398300000.000 -1.0853889624E+001 +8.2118966815E+001 
11733250000.000 -1.0676957509E+001 +6.6428715167E+001 
12068200000.000 -1.0578182496E+001 +5.0593545205E+001 
12403150000.000 -1.0456298025E+001 +3.4882413930E+001 
12738100000.000 -1.0333674629E+001 +1.8813393704E+001 
13073050000.000 -1.0247336788E+001 +2.6522437977E+000 
13408000000.000 -1.0192041547E+001 -1.3576677515E+001 
13742950000.000 -1.0153061798E+001 -2.9921988983E+001 
14077900000.000 -1.0103254679E+001 -4.6354008155E+001 
14412850000.000 -1.0036369484E+001 -6.3025797280E+001 
14747800000.000 -9.9802162854E+000 -7.9579525248E+001 
15082750000.000 -9.8812977558E+000 -9.6097063747E+001 
15417700000.000 -9.7769790077E+000 -1.1290450822E+002 
15752650000.000 -9.6364695369E+000 -1.2949082788E+002 
16087600000.000 -9.4815293260E+000 -1.4595174416E+002 
16422550000.000 -9.3537073299E+000 -1.6193044617E+002 
16757500000.000 -9.1447343819E+000 -1.7789820617E+002 
17092450000.000 -8.9599508452E+000 +1.6622447867E+002 
17427400000.000 -8.7662483476E+000 +1.5066194436E+002 
17762350000.000 -8.6070040032E+000 +1.3538059889E+002 
18097300000.000 -8.4534731538E+000 +1.1995391357E+002 
18432250000.000 -8.3224598933E+000 +1.0488148016E+002 
18767200000.000 -8.2411571217E+000 +9.0253691281E+001 
19102150000.000 -8.1828626495E+000 +7.5516885053E+001 
19437100000.000 -8.1426452755E+000 +6.0924937314E+001 
19772050000.000 -8.1647424626E+000 +4.6569172802E+001 
20107000000.000 -8.2185080352E+000 +3.1911508056E+001 
20441950000.000 -8.3214444107E+000 +1.7259443571E+001 
20776900000.000 -8.4233077958E+000 +2.1730849528E+000 
21111850000.000 -8.5832008527E+000 -1.2998312270E+001 
21446800000.000 -8.7504509408E+000 -2.8542855554E+001 
21781750000.000 -8.9439774168E+000 -4.4293625261E+001 
22116700000.000 -9.1453859373E+000 -6.0455480383E+001 
22451650000.000 -9.3588711227E+000 -7.7321821137E+001 
22786600000.000 -9.5384841119E+000 -9.4016526725E+001 
23121550000.000 -9.7218163533E+000 -1.1086658609E+002 
23456500000.000 -9.8767713537E+000 -1.2853613100E+002 
23791450000.000 -9.9798334356E+000 -1.4644888959E+002 
24126400000.000 -1.0072057578E+001 -1.6390103481E+002 
24461350000.000 -1.0147264699E+001 +1.7814956492E+002 
24796300000.000 -1.0085501780E+001 +1.6065124085E+002 
25131250000.000 -1.0130245589E+001 +1.4317316853E+002 
25466200000.000 -1.0059275143E+001 +1.2564477777E+002 
25801150000.000 -1.0034910659E+001 +1.0842597724E+002 
26136100000.000 -9.9815936854E+000 +9.1680497947E+001 
26471050000.000 -9.9003086646E+000 +7.4730201741E+001 
26806000000.000 -9.8365207893E+000 +5.8335584801E+001 
27140950000.000 -9.8053615562E+000 +4.2016996315E+001 
27475900000.000 -9.7839000052E+000 +2.6008421756E+001 
27810850000.000 -9.7857927667E+000 +9.9998332081E+000 
28145800000.000 -9.8082929879E+000 -6.2131041484E+000 
28480750000.000 -9.9186166275E+000 -2.2495008639E+001 
28815700000.000 -1.0039420013E+001 -3.8893353418E+001 
29150650000.000 -1.0224575409E+001 -5.5447927859E+001 
29485600000.000 -1.0436847485E+001 -7.2012709886E+001 
29820550000.000 -1.0678195726E+001 -8.9147777237E+001 
30155500000.000 -1.0872628066E+001 -1.0675253745E+002 
30490450000.000 -1.1022972231E+001 -1.2450914996E+002 
30825400000.000 -1.1157317901E+001 -1.4204201171E+002 
31160350000.000 -1.1256562147E+001 -1.6042766697E+002 
31495300000.000 -1.1168401644E+001 -1.7888369371E+002 
31830250000.000 -1.1109888108E+001 +1.6322243740E+002 
32165200000.000 -1.1100302455E+001 +1.4463395044E+002 
32500150000.000 -1.0960618947E+001 +1.2778955874E+002 
32835100000.000 -1.0779550009E+001 +1.1177600429E+002 
33170050000.000 -1.0761790717E+001 +9.6368763101E+001 
33505000000.000 -1.0703096234E+001 +8.0184988233E+001 
33839950000.000 -1.0652405467E+001 +6.4702720948E+001 
34174900000.000 -1.0638513421E+001 +4.9029191493E+001 
34509850000.000 -1.0761988639E+001 +3.3211002276E+001 
34844800000.000 -1.0918294254E+001 +1.8042272174E+001 
35179750000.000 -1.1049256912E+001 +3.5513159534E+000 
35514700000.000 -1.1164437996E+001 -1.2344287229E+001 
35849650000.000 -1.1169427902E+001 -2.9475258574E+001 
36184600000.000 -1.1298513718E+001 -4.7314584519E+001 
36519550000.000 -1.1477493081E+001 -6.5541850436E+001 
36854500000.000 -1.1615309737E+001 -8.4260841684E+001 
37189450000.000 -1.1752384858E+001 -1.0416770825E+002 
37524400000.000 -1.1766040382E+001 -1.2322153194E+002 
37859350000.000 -1.2062555132E+001 -1.4284967128E+002 
38194300000.000 -1.2038144151E+001 -1.6324797080E+002 
38529250000.000 -1.2044650148E+001 +1.7675601455E+002 
38864200000.000 -1.2108088671E+001 +1.5682998478E+002 
39199150000.000 -1.2322154928E+001 +1.3668447255E+002 
39534100000.000 -1.2462794132E+001 +1.1684149823E+002 
39869050000.000 -1.2768596096E+001 +9.8180270291E+001 
40204000000.000 -1.3357411392E+001 +8.1046443899E+001 
40538950000.000 -1.3813310745E+001 +6.4696659606E+001 
40873900000.000 -1.4103181310E+001 +5.3155519403E+001 
41208850000.000 -1.4342637490E+001 +4.0236999871E+001 
41543800000.000 -1.4344925640E+001 +2.8205819927E+001 
41878750000.000 -1.4145237989E+001 +1.6946132088E+001 
42213700000.000 -1.3939125945E+001 +6.2916336439E+000 
42548650000.000 -1.3662872944E+001 -6.4153808892E+000 
42883600000.000 -1.3470965477E+001 -1.8913789182E+001 
43218550000.000 -1.3467940913E+001 -3.1797779220E+001 
43553500000.000 -1.3524276597E+001 -4.4472248731E+001 
43888450000.000 -1.3601675302E+001 -5.8656713408E+001 
44223400000.000 -1.3881460899E+001 -7.2823631682E+001 
44558350000.000 -1.4332311180E+001 -8.7383073775E+001 
44893300000.000 -1.4663112580E+001 -1.0033986906E+002 
45228250000.000 -1.5257068148E+001 -1.1636125851E+002 
45563200000.000 -1.5545861073E+001 -1.3218779864E+002 
45898150000.000 -1.6007629349E+001 -1.4813529529E+002 
46233100000.000 -1.6541733665E+001 -1.6515169725E+002 
46568050000.000 -1.6774067799E+001 +1.7679518174E+002 
46903000000.000 -1.7122820091E+001 +1.5987433296E+002 
47237950000.000 -1.7407225202E+001 +1.4173718546E+002 
47572900000.000 -1.7833574068E+001 +1.2606269707E+002 
47907850000.000 -1.8351382149E+001 +1.1016007555E+002 
48242800000.000 -1.8847750474E+001 +9.5289250048E+001 
48577750000.000 -1.9750600395E+001 +8.0084864584E+001 
48912700000.000 -2.0460639459E+001 +6.5574022692E+001 
49247650000.000 -2.1622022617E+001 +5.5594546595E+001 
49582600000.000 -2.3323230263E+001 +4.2767751163E+001 
49917550000.000 -2.5213146576E+001 +3.0093637511E+001 
50252500000.000 -2.8468946298E+001 +2.1633262798E+001 
50587450000.000 -3.3619315888E+001 +1.5045814834E+001 
50922400000.000 -4.0018585788E+001 +4.9403722234E+001 
51257350000.000 -3.3758921170E+001 +1.2120033006E+002 
51592300000.000 -2.9686370998E+001 +1.1767901195E+002 
51927250000.000 -2.5710715689E+001 +1.0497960798E+002 
52262200000.000 -2.3291828757E+001 +9.2020122930E+001 
52597150000.000 -2.1901305974E+001 +7.6460315045E+001 
52932100000.000 -2.0127326703E+001 +6.1273971536E+001 
53267050000.000 -1.9183974737E+001 +4.6767475224E+001 
53602000000.000 -1.8145082399E+001 +2.9573748125E+001 
53936950000.000 -1.7381541624E+001 +1.2687600461E+001 
54271900000.000 -1.6487611309E+001 -3.3416695722E+000 
54606850000.000 -1.6019981605E+001 -1.9888798146E+001 
54941800000.000 -1.5540569524E+001 -3.8724610327E+001 
55276750000.000 -1.4913724332E+001 -5.4139601004E+001 
55611700000.000 -1.4559501611E+001 -7.0970190615E+001 
55946650000.000 -1.4612032972E+001 -8.9327107394E+001 
56281600000.000 -1.4168493526E+001 -1.0755869129E+002 
56616550000.000 -1.3777282235E+001 -1.2150158773E+002 
56951500000.000 -1.3312850119E+001 -1.3845671570E+002 
57286450000.000 -1.2893130014E+001 -1.5762337590E+002 
57621400000.000 -1.2361290020E+001 -1.7453012250E+002 
57956350000.000 -1.1746678263E+001 +1.6869807456E+002 
58291300000.000 -1.1242428443E+001 +1.5185912501E+002 
58626250000.000 -1.0663718046E+001 +1.3607426598E+002 
58961200000.000 -1.0099812210E+001 +1.2073788154E+002 
59296150000.000 -9.6654764314E+000 +1.0547617391E+002 
59631100000.000 -9.1709688371E+000 +9.1163236625E+001 
59966050000.000 -8.8247833878E+000 +7.6717671386E+001 
60301000000.000 -8.3469144210E+000 +6.2730566135E+001 
60635950000.000 -8.1730523985E+000 +4.8950946884E+001 
60970900000.000 -7.9327474680E+000 +3.5294905937E+001 
61305850000.000 -7.7822860684E+000 +2.2273728934E+001 
61640800000.000 -7.8176573580E+000 +9.2107166626E+000 
61975750000.000 -7.6964435096E+000 -5.6609203387E+000 
62310700000.000 -7.6052086511E+000 -1.8424676061E+001 
62645650000.000 -7.6816727345E+000 -3.2024705215E+001 
62980600000.000 -7.6825482124E+000 -4.6031213985E+001 
63315550000.000 -7.7583666395E+000 -6.0183896492E+001 
63650500000.000 -7.7214794310E+000 -7.3676555503E+001 
63985450000.000 -7.9092272690E+000 -8.8175299805E+001 
64320400000.000 -8.0429459959E+000 -1.0241040126E+002 
64655350000.000 -8.1832654491E+000 -1.1682479012E+002 
64990300000.000 -8.2739077197E+000 -1.3015464793E+002 
65325250000.000 -8.6302823757E+000 -1.4390915151E+002 
65660200000.000 -8.7620177310E+000 -1.5822210033E+002 
65995150000.000 -8.7853701692E+000 -1.7114675617E+002 
66330100000.000 -9.0607062957E+000 +1.7412507224E+002 
66665050000.000 -8.8496070401E+000 +1.5958215477E+002 
67000000000.000 -8.8655046081E+000 +1.4588265765E+002 
